1



                                 *********************************************

                                    NUMERICAL ELECTROMAGNETICS CODE (NEC-2D)

                                 *********************************************




                                     - - - - COMMENTS - - - -


                          ECE 6370 - Homework 8.1                                                    
                          Caitlyn Caggia                                                             
                          Calculation 1                                                              




                                 - - - STRUCTURE SPECIFICATION - - -

                                     COORDINATES MUST BE INPUT IN
                                     METERS OR BE SCALED TO METERS
                                     BEFORE STRUCTURE INPUT IS ENDED


  WIRE                                                                               NO. OF    FIRST  LAST     TAG
  NO.        X1         Y1         Z1          X2         Y2         Z2      RADIUS   SEG.     SEG.   SEG.     NO.
     1   -0.07500    0.00000   -0.05000    -0.07500    0.00000    0.05000    0.00025     11        1    11       1
     2    0.00000    0.00000   -0.05000     0.00000    0.00000    0.05000    0.00025     11       12    22       2
     3    0.07500    0.00000   -0.05000     0.07500    0.00000    0.05000    0.00025     11       23    33       3

   TOTAL SEGMENTS USED=   33     NO. SEG. IN A SYMMETRIC CELL=   33     SYMMETRY FLAG=  0


         - MULTIPLE WIRE JUNCTIONS -
 JUNCTION    SEGMENTS  (- FOR END 1, + FOR END 2)
  NONE




                                 - - - - SEGMENTATION DATA - - - -

                                        COORDINATES IN METERS

                         I+ AND I- INDICATE THE SEGMENTS BEFORE AND AFTER I


  SEG.   COORDINATES OF SEG. CENTER     SEG.     ORIENTATION ANGLES    WIRE    CONNECTION DATA   TAG
  NO.       X         Y         Z       LENGTH     ALPHA     BETA      RADIUS    I-   I    I+    NO.
     1  -0.07500   0.00000  -0.04545   0.00909   90.00000   0.00000   0.00025     0    1    2      1
     2  -0.07500   0.00000  -0.03636   0.00909   90.00000   0.00000   0.00025     1    2    3      1
     3  -0.07500   0.00000  -0.02727   0.00909   90.00000   0.00000   0.00025     2    3    4      1
     4  -0.07500   0.00000  -0.01818   0.00909   90.00000   0.00000   0.00025     3    4    5      1
     5  -0.07500   0.00000  -0.00909   0.00909   90.00000   0.00000   0.00025     4    5    6      1
     6  -0.07500   0.00000   0.00000   0.00909   90.00000   0.00000   0.00025     5    6    7      1
     7  -0.07500   0.00000   0.00909   0.00909   90.00000   0.00000   0.00025     6    7    8      1
     8  -0.07500   0.00000   0.01818   0.00909   90.00000   0.00000   0.00025     7    8    9      1
     9  -0.07500   0.00000   0.02727   0.00909   90.00000   0.00000   0.00025     8    9   10      1
    10  -0.07500   0.00000   0.03636   0.00909   90.00000   0.00000   0.00025     9   10   11      1
    11  -0.07500   0.00000   0.04545   0.00909   90.00000   0.00000   0.00025    10   11    0      1
    12   0.00000   0.00000  -0.04545   0.00909   90.00000   0.00000   0.00025     0   12   13      2
    13   0.00000   0.00000  -0.03636   0.00909   90.00000   0.00000   0.00025    12   13   14      2
    14   0.00000   0.00000  -0.02727   0.00909   90.00000   0.00000   0.00025    13   14   15      2
    15   0.00000   0.00000  -0.01818   0.00909   90.00000   0.00000   0.00025    14   15   16      2
    16   0.00000   0.00000  -0.00909   0.00909   90.00000   0.00000   0.00025    15   16   17      2
    17   0.00000   0.00000   0.00000   0.00909   90.00000   0.00000   0.00025    16   17   18      2
    18   0.00000   0.00000   0.00909   0.00909   90.00000   0.00000   0.00025    17   18   19      2
    19   0.00000   0.00000   0.01818   0.00909   90.00000   0.00000   0.00025    18   19   20      2
    20   0.00000   0.00000   0.02727   0.00909   90.00000   0.00000   0.00025    19   20   21      2
    21   0.00000   0.00000   0.03636   0.00909   90.00000   0.00000   0.00025    20   21   22      2
    22   0.00000   0.00000   0.04545   0.00909   90.00000   0.00000   0.00025    21   22    0      2
    23   0.07500   0.00000  -0.04545   0.00909   90.00000   0.00000   0.00025     0   23   24      3
    24   0.07500   0.00000  -0.03636   0.00909   90.00000   0.00000   0.00025    23   24   25      3
    25   0.07500   0.00000  -0.02727   0.00909   90.00000   0.00000   0.00025    24   25   26      3
    26   0.07500   0.00000  -0.01818   0.00909   90.00000   0.00000   0.00025    25   26   27      3
    27   0.07500   0.00000  -0.00909   0.00909   90.00000   0.00000   0.00025    26   27   28      3
    28   0.07500   0.00000   0.00000   0.00909   90.00000   0.00000   0.00025    27   28   29      3
    29   0.07500   0.00000   0.00909   0.00909   90.00000   0.00000   0.00025    28   29   30      3
    30   0.07500   0.00000   0.01818   0.00909   90.00000   0.00000   0.00025    29   30   31      3
    31   0.07500   0.00000   0.02727   0.00909   90.00000   0.00000   0.00025    30   31   32      3
    32   0.07500   0.00000   0.03636   0.00909   90.00000   0.00000   0.00025    31   32   33      3
    33   0.07500   0.00000   0.04545   0.00909   90.00000   0.00000   0.00025    32   33    0      3






 ***** DATA CARD NO.  1   EX   0     2     6     0  1.00000E+00  0.00000E+00  0.00000E+00  0.00000E+00  0.00000E+00  0.00000E+00
 ***** DATA CARD NO.  2   FR   0     1     0     0  1.50000E+03  0.00000E+00  0.00000E+00  0.00000E+00  0.00000E+00  0.00000E+00
 ***** DATA CARD NO.  3   RP   0     1     0  1000  0.00000E+00  0.00000E+00  0.00000E+00  0.00000E+00  0.00000E+00  0.00000E+00




                                 - - - - - - FREQUENCY - - - - - -

                                    FREQUENCY= 1.5000E+03 MHZ
                                    WAVELENGTH= 1.9987E-01 METERS




                    APPROXIMATE INTEGRATION EMPLOYED FOR SEGMENTS MORE THAN   1.000 WAVELENGTHS APART



                               - - - STRUCTURE IMPEDANCE LOADING - - -

                                   THIS STRUCTURE IS NOT LOADED



                                  - - - ANTENNA ENVIRONMENT - - -

                                            FREE SPACE



                                - - - MATRIX TIMING - - -

                        FILL=    0.000 SEC.,  FACTOR=    0.000 SEC.



                                          - - - ANTENNA INPUT PARAMETERS - - -

   TAG   SEG.    VOLTAGE (VOLTS)         CURRENT (AMPS)         IMPEDANCE (OHMS)        ADMITTANCE (MHOS)      POWER
   NO.   NO.    REAL        IMAG.       REAL        IMAG.       REAL        IMAG.       REAL        IMAG.     (WATTS)
     2    17 1.00000E+00 0.00000E+00 7.36378E-03-1.72508E-03 1.28735E+02 3.01581E+01 7.36378E-03-1.72508E-03 3.68189E-03



                             - - - CURRENTS AND LOCATION - - -

                                 DISTANCES IN WAVELENGTHS


  SEG.  TAG    COORD. OF SEG. CENTER     SEG.            - - - CURRENT (AMPS) - - -
  NO.   NO.     X        Y        Z      LENGTH     REAL        IMAG.       MAG.        PHASE
     1    1  -0.3753   0.0000  -0.2274  0.04548   5.5683E-04  4.8510E-04  7.3850E-04   41.062
     2    1  -0.3753   0.0000  -0.1819  0.04548   1.4205E-03  1.2380E-03  1.8843E-03   41.072
     3    1  -0.3753   0.0000  -0.1365  0.04548   2.1177E-03  1.8464E-03  2.8096E-03   41.085
     4    1  -0.3753   0.0000  -0.0910  0.04548   2.6460E-03  2.3079E-03  3.5111E-03   41.096
     5    1  -0.3753   0.0000  -0.0455  0.04548   2.9765E-03  2.5969E-03  3.9501E-03   41.104
     6    1  -0.3753   0.0000   0.0000  0.04548   3.0891E-03  2.6954E-03  4.0997E-03   41.106
     7    1  -0.3753   0.0000   0.0455  0.04548   2.9765E-03  2.5969E-03  3.9501E-03   41.104
     8    1  -0.3753   0.0000   0.0910  0.04548   2.6460E-03  2.3079E-03  3.5111E-03   41.096
     9    1  -0.3753   0.0000   0.1365  0.04548   2.1177E-03  1.8464E-03  2.8096E-03   41.085
    10    1  -0.3753   0.0000   0.1819  0.04548   1.4205E-03  1.2380E-03  1.8843E-03   41.072
    11    1  -0.3753   0.0000   0.2274  0.04548   5.5683E-04  4.8510E-04  7.3850E-04   41.062
    12    2   0.0000   0.0000  -0.2274  0.04548   1.3184E-03 -6.1017E-04  1.4528E-03  -24.835
    13    2   0.0000   0.0000  -0.1819  0.04548   3.3715E-03 -1.4543E-03  3.6718E-03  -23.333
    14    2   0.0000   0.0000  -0.1365  0.04548   5.0360E-03 -1.9904E-03  5.4151E-03  -21.566
    15    2   0.0000   0.0000  -0.0910  0.04548   6.3008E-03 -2.2190E-03  6.6801E-03  -19.401
    16    2   0.0000   0.0000  -0.0455  0.04548   7.0936E-03 -2.0954E-03  7.3966E-03  -16.457
    17    2   0.0000   0.0000   0.0000  0.04548   7.3638E-03 -1.7251E-03  7.5631E-03  -13.185
    18    2   0.0000   0.0000   0.0455  0.04548   7.0936E-03 -2.0954E-03  7.3966E-03  -16.457
    19    2   0.0000   0.0000   0.0910  0.04548   6.3008E-03 -2.2190E-03  6.6801E-03  -19.401
    20    2   0.0000   0.0000   0.1365  0.04548   5.0360E-03 -1.9904E-03  5.4151E-03  -21.566
    21    2   0.0000   0.0000   0.1819  0.04548   3.3715E-03 -1.4543E-03  3.6718E-03  -23.333
    22    2   0.0000   0.0000   0.2274  0.04548   1.3184E-03 -6.1017E-04  1.4528E-03  -24.835
    23    3   0.3753   0.0000  -0.2274  0.04548   5.5683E-04  4.8510E-04  7.3850E-04   41.062
    24    3   0.3753   0.0000  -0.1819  0.04548   1.4205E-03  1.2380E-03  1.8843E-03   41.072
    25    3   0.3753   0.0000  -0.1365  0.04548   2.1177E-03  1.8464E-03  2.8096E-03   41.085
    26    3   0.3753   0.0000  -0.0910  0.04548   2.6460E-03  2.3079E-03  3.5111E-03   41.096
    27    3   0.3753   0.0000  -0.0455  0.04548   2.9765E-03  2.5969E-03  3.9501E-03   41.104
    28    3   0.3753   0.0000   0.0000  0.04548   3.0891E-03  2.6954E-03  4.0997E-03   41.106
    29    3   0.3753   0.0000   0.0455  0.04548   2.9765E-03  2.5969E-03  3.9501E-03   41.104
    30    3   0.3753   0.0000   0.0910  0.04548   2.6460E-03  2.3079E-03  3.5111E-03   41.096
    31    3   0.3753   0.0000   0.1365  0.04548   2.1177E-03  1.8464E-03  2.8096E-03   41.085
    32    3   0.3753   0.0000   0.1819  0.04548   1.4205E-03  1.2380E-03  1.8843E-03   41.072
    33    3   0.3753   0.0000   0.2274  0.04548   5.5683E-04  4.8510E-04  7.3850E-04   41.062



                                        - - - POWER BUDGET - - -

                                           INPUT POWER   = 3.6819E-03 WATTS
                                           RADIATED POWER= 3.6819E-03 WATTS
                                           STRUCTURE LOSS= 0.0000E+00 WATTS
                                           NETWORK LOSS  = 0.0000E+00 WATTS
                                           EFFICIENCY    = 100.00 PERCENT



                                                - - - RADIATION PATTERNS - - -

  - - ANGLES - -           - POWER GAINS -       - - - POLARIZATION - - -    - - - E(THETA) - - -    - - - E(PHI) - - -
  THETA     PHI        VERT.   HOR.    TOTAL      AXIAL     TILT   SENSE     MAGNITUDE    PHASE      MAGNITUDE    PHASE 
 DEGREES  DEGREES       DB      DB      DB        RATIO     DEG.              VOLTS/M    DEGREES      VOLTS/M    DEGREES
    0.00     0.00    -999.99 -999.99 -999.99    0.00000     0.00            0.00000E+00     0.00    0.00000E+00     0.00






 ***** DATA CARD NO.  4   EN   0     1     0  1000  0.00000E+00  0.00000E+00  0.00000E+00  0.00000E+00  0.00000E+00  0.00000E+00

 RUN TIME =     0.000
