1



                                 *********************************************

                                    NUMERICAL ELECTROMAGNETICS CODE (NEC-2D)

                                 *********************************************




                                     - - - - COMMENTS - - - -


                          ECE 6370 - Homework 8.1                                                    
                          Caitlyn Caggia                                                             
                          Calculation 1                                                              




                                 - - - STRUCTURE SPECIFICATION - - -

                                     COORDINATES MUST BE INPUT IN
                                     METERS OR BE SCALED TO METERS
                                     BEFORE STRUCTURE INPUT IS ENDED


  WIRE                                                                               NO. OF    FIRST  LAST     TAG
  NO.        X1         Y1         Z1          X2         Y2         Z2      RADIUS   SEG.     SEG.   SEG.     NO.
     1   -0.07500    0.00000   -0.05000    -0.07500    0.00000    0.05000    0.00025     11        1    11       1
     2    0.00000    0.00000   -0.05000     0.00000    0.00000    0.05000    0.00025     11       12    22       2
     3    0.07500    0.00000   -0.05000     0.07500    0.00000    0.05000    0.00025     11       23    33       3

   TOTAL SEGMENTS USED=   33     NO. SEG. IN A SYMMETRIC CELL=   33     SYMMETRY FLAG=  0


         - MULTIPLE WIRE JUNCTIONS -
 JUNCTION    SEGMENTS  (- FOR END 1, + FOR END 2)
  NONE




                                 - - - - SEGMENTATION DATA - - - -

                                        COORDINATES IN METERS

                         I+ AND I- INDICATE THE SEGMENTS BEFORE AND AFTER I


  SEG.   COORDINATES OF SEG. CENTER     SEG.     ORIENTATION ANGLES    WIRE    CONNECTION DATA   TAG
  NO.       X         Y         Z       LENGTH     ALPHA     BETA      RADIUS    I-   I    I+    NO.
     1  -0.07500   0.00000  -0.04545   0.00909   90.00000   0.00000   0.00025     0    1    2      1
     2  -0.07500   0.00000  -0.03636   0.00909   90.00000   0.00000   0.00025     1    2    3      1
     3  -0.07500   0.00000  -0.02727   0.00909   90.00000   0.00000   0.00025     2    3    4      1
     4  -0.07500   0.00000  -0.01818   0.00909   90.00000   0.00000   0.00025     3    4    5      1
     5  -0.07500   0.00000  -0.00909   0.00909   90.00000   0.00000   0.00025     4    5    6      1
     6  -0.07500   0.00000   0.00000   0.00909   90.00000   0.00000   0.00025     5    6    7      1
     7  -0.07500   0.00000   0.00909   0.00909   90.00000   0.00000   0.00025     6    7    8      1
     8  -0.07500   0.00000   0.01818   0.00909   90.00000   0.00000   0.00025     7    8    9      1
     9  -0.07500   0.00000   0.02727   0.00909   90.00000   0.00000   0.00025     8    9   10      1
    10  -0.07500   0.00000   0.03636   0.00909   90.00000   0.00000   0.00025     9   10   11      1
    11  -0.07500   0.00000   0.04545   0.00909   90.00000   0.00000   0.00025    10   11    0      1
    12   0.00000   0.00000  -0.04545   0.00909   90.00000   0.00000   0.00025     0   12   13      2
    13   0.00000   0.00000  -0.03636   0.00909   90.00000   0.00000   0.00025    12   13   14      2
    14   0.00000   0.00000  -0.02727   0.00909   90.00000   0.00000   0.00025    13   14   15      2
    15   0.00000   0.00000  -0.01818   0.00909   90.00000   0.00000   0.00025    14   15   16      2
    16   0.00000   0.00000  -0.00909   0.00909   90.00000   0.00000   0.00025    15   16   17      2
    17   0.00000   0.00000   0.00000   0.00909   90.00000   0.00000   0.00025    16   17   18      2
    18   0.00000   0.00000   0.00909   0.00909   90.00000   0.00000   0.00025    17   18   19      2
    19   0.00000   0.00000   0.01818   0.00909   90.00000   0.00000   0.00025    18   19   20      2
    20   0.00000   0.00000   0.02727   0.00909   90.00000   0.00000   0.00025    19   20   21      2
    21   0.00000   0.00000   0.03636   0.00909   90.00000   0.00000   0.00025    20   21   22      2
    22   0.00000   0.00000   0.04545   0.00909   90.00000   0.00000   0.00025    21   22    0      2
    23   0.07500   0.00000  -0.04545   0.00909   90.00000   0.00000   0.00025     0   23   24      3
    24   0.07500   0.00000  -0.03636   0.00909   90.00000   0.00000   0.00025    23   24   25      3
    25   0.07500   0.00000  -0.02727   0.00909   90.00000   0.00000   0.00025    24   25   26      3
    26   0.07500   0.00000  -0.01818   0.00909   90.00000   0.00000   0.00025    25   26   27      3
    27   0.07500   0.00000  -0.00909   0.00909   90.00000   0.00000   0.00025    26   27   28      3
    28   0.07500   0.00000   0.00000   0.00909   90.00000   0.00000   0.00025    27   28   29      3
    29   0.07500   0.00000   0.00909   0.00909   90.00000   0.00000   0.00025    28   29   30      3
    30   0.07500   0.00000   0.01818   0.00909   90.00000   0.00000   0.00025    29   30   31      3
    31   0.07500   0.00000   0.02727   0.00909   90.00000   0.00000   0.00025    30   31   32      3
    32   0.07500   0.00000   0.03636   0.00909   90.00000   0.00000   0.00025    31   32   33      3
    33   0.07500   0.00000   0.04545   0.00909   90.00000   0.00000   0.00025    32   33    0      3






 ***** DATA CARD NO.  1   EX   0     1     6     0  1.00000E+00  0.00000E+00  0.00000E+00  0.00000E+00  0.00000E+00  0.00000E+00
 ***** DATA CARD NO.  2   FR   0     1     0     0  1.50000E+03  0.00000E+00  0.00000E+00  0.00000E+00  0.00000E+00  0.00000E+00
 ***** DATA CARD NO.  3   RP   0     1     0  1000  0.00000E+00  0.00000E+00  0.00000E+00  0.00000E+00  0.00000E+00  0.00000E+00




                                 - - - - - - FREQUENCY - - - - - -

                                    FREQUENCY= 1.5000E+03 MHZ
                                    WAVELENGTH= 1.9987E-01 METERS




                    APPROXIMATE INTEGRATION EMPLOYED FOR SEGMENTS MORE THAN   1.000 WAVELENGTHS APART



                               - - - STRUCTURE IMPEDANCE LOADING - - -

                                   THIS STRUCTURE IS NOT LOADED



                                  - - - ANTENNA ENVIRONMENT - - -

                                            FREE SPACE



                                - - - MATRIX TIMING - - -

                        FILL=    0.000 SEC.,  FACTOR=    0.000 SEC.



                                          - - - ANTENNA INPUT PARAMETERS - - -

   TAG   SEG.    VOLTAGE (VOLTS)         CURRENT (AMPS)         IMPEDANCE (OHMS)        ADMITTANCE (MHOS)      POWER
   NO.   NO.    REAL        IMAG.       REAL        IMAG.       REAL        IMAG.       REAL        IMAG.     (WATTS)
     1     6 1.00000E+00 0.00000E+00 7.95281E-03-3.45993E-03 1.05730E+02 4.59985E+01 7.95281E-03-3.45993E-03 3.97641E-03



                             - - - CURRENTS AND LOCATION - - -

                                 DISTANCES IN WAVELENGTHS


  SEG.  TAG    COORD. OF SEG. CENTER     SEG.            - - - CURRENT (AMPS) - - -
  NO.   NO.     X        Y        Z      LENGTH     REAL        IMAG.       MAG.        PHASE
     1    1  -0.3753   0.0000  -0.2274  0.04548   1.4236E-03 -9.2265E-04  1.6964E-03  -32.948
     2    1  -0.3753   0.0000  -0.1819  0.04548   3.6407E-03 -2.2517E-03  4.2807E-03  -31.736
     3    1  -0.3753   0.0000  -0.1365  0.04548   5.4383E-03 -3.1794E-03  6.2995E-03  -30.312
     4    1  -0.3753   0.0000  -0.0910  0.04548   6.8045E-03 -3.7048E-03  7.7477E-03  -28.567
     5    1  -0.3753   0.0000  -0.0455  0.04548   7.6609E-03 -3.7670E-03  8.5370E-03  -26.184
     6    1  -0.3753   0.0000   0.0000  0.04548   7.9528E-03 -3.4599E-03  8.6729E-03  -23.512
     7    1  -0.3753   0.0000   0.0455  0.04548   7.6609E-03 -3.7670E-03  8.5370E-03  -26.184
     8    1  -0.3753   0.0000   0.0910  0.04548   6.8045E-03 -3.7048E-03  7.7477E-03  -28.567
     9    1  -0.3753   0.0000   0.1365  0.04548   5.4383E-03 -3.1794E-03  6.2995E-03  -30.312
    10    1  -0.3753   0.0000   0.1819  0.04548   3.6407E-03 -2.2517E-03  4.2807E-03  -31.736
    11    1  -0.3753   0.0000   0.2274  0.04548   1.4236E-03 -9.2265E-04  1.6964E-03  -32.948
    12    2   0.0000   0.0000  -0.2274  0.04548   5.5661E-04  4.8332E-04  7.3716E-04   40.969
    13    2   0.0000   0.0000  -0.1819  0.04548   1.4201E-03  1.2351E-03  1.8821E-03   41.012
    14    2   0.0000   0.0000  -0.1365  0.04548   2.1174E-03  1.8440E-03  2.8078E-03   41.051
    15    2   0.0000   0.0000  -0.0910  0.04548   2.6459E-03  2.3066E-03  3.5101E-03   41.081
    16    2   0.0000   0.0000  -0.0455  0.04548   2.9765E-03  2.5966E-03  3.9499E-03   41.100
    17    2   0.0000   0.0000   0.0000  0.04548   3.0891E-03  2.6954E-03  4.0997E-03   41.107
    18    2   0.0000   0.0000   0.0455  0.04548   2.9765E-03  2.5966E-03  3.9499E-03   41.100
    19    2   0.0000   0.0000   0.0910  0.04548   2.6459E-03  2.3066E-03  3.5101E-03   41.081
    20    2   0.0000   0.0000   0.1365  0.04548   2.1174E-03  1.8440E-03  2.8078E-03   41.051
    21    2   0.0000   0.0000   0.1819  0.04548   1.4201E-03  1.2351E-03  1.8821E-03   41.012
    22    2   0.0000   0.0000   0.2274  0.04548   5.5661E-04  4.8332E-04  7.3716E-04   40.969
    23    3   0.3753   0.0000  -0.2274  0.04548  -4.9395E-05 -1.2285E-04  1.3241E-04 -111.904
    24    3   0.3753   0.0000  -0.1819  0.04548  -1.2938E-04 -3.1460E-04  3.4017E-04 -112.356
    25    3   0.3753   0.0000  -0.1365  0.04548  -1.9683E-04 -4.7053E-04  5.1004E-04 -112.700
    26    3   0.3753   0.0000  -0.0910  0.04548  -2.4940E-04 -5.8933E-04  6.3993E-04 -112.938
    27    3   0.3753   0.0000  -0.0455  0.04548  -2.8289E-04 -6.6393E-04  7.2169E-04 -113.078
    28    3   0.3753   0.0000   0.0000  0.04548  -2.9439E-04 -6.8938E-04  7.4961E-04 -113.124
    29    3   0.3753   0.0000   0.0455  0.04548  -2.8289E-04 -6.6393E-04  7.2169E-04 -113.078
    30    3   0.3753   0.0000   0.0910  0.04548  -2.4940E-04 -5.8933E-04  6.3993E-04 -112.938
    31    3   0.3753   0.0000   0.1365  0.04548  -1.9683E-04 -4.7053E-04  5.1004E-04 -112.700
    32    3   0.3753   0.0000   0.1819  0.04548  -1.2938E-04 -3.1460E-04  3.4017E-04 -112.356
    33    3   0.3753   0.0000   0.2274  0.04548  -4.9395E-05 -1.2285E-04  1.3241E-04 -111.904



                                        - - - POWER BUDGET - - -

                                           INPUT POWER   = 3.9764E-03 WATTS
                                           RADIATED POWER= 3.9764E-03 WATTS
                                           STRUCTURE LOSS= 0.0000E+00 WATTS
                                           NETWORK LOSS  = 0.0000E+00 WATTS
                                           EFFICIENCY    = 100.00 PERCENT



                                                - - - RADIATION PATTERNS - - -

  - - ANGLES - -           - POWER GAINS -       - - - POLARIZATION - - -    - - - E(THETA) - - -    - - - E(PHI) - - -
  THETA     PHI        VERT.   HOR.    TOTAL      AXIAL     TILT   SENSE     MAGNITUDE    PHASE      MAGNITUDE    PHASE 
 DEGREES  DEGREES       DB      DB      DB        RATIO     DEG.              VOLTS/M    DEGREES      VOLTS/M    DEGREES
    0.00     0.00    -999.99 -999.99 -999.99    0.00000     0.00            0.00000E+00     0.00    0.00000E+00     0.00






 ***** DATA CARD NO.  4   EN   0     1     0  1000  0.00000E+00  0.00000E+00  0.00000E+00  0.00000E+00  0.00000E+00  0.00000E+00

 RUN TIME =     0.000
