1



                                 *********************************************

                                    NUMERICAL ELECTROMAGNETICS CODE (NEC-2D)

                                 *********************************************




                                     - - - - COMMENTS - - - -


                          ECE 6370 - Homework 5.A                                                    
                          Caitlyn Caggia                                                             
                          CENTER FED HALF-WAVE DIPOLE                                                




                                 - - - STRUCTURE SPECIFICATION - - -

                                     COORDINATES MUST BE INPUT IN
                                     METERS OR BE SCALED TO METERS
                                     BEFORE STRUCTURE INPUT IS ENDED


  WIRE                                                                               NO. OF    FIRST  LAST     TAG
  NO.        X1         Y1         Z1          X2         Y2         Z2      RADIUS   SEG.     SEG.   SEG.     NO.
     1    0.00000    0.00000   -0.15000     0.00000    0.00000    0.15000    0.00010     31        1    31       1

   TOTAL SEGMENTS USED=   31     NO. SEG. IN A SYMMETRIC CELL=   31     SYMMETRY FLAG=  0


         - MULTIPLE WIRE JUNCTIONS -
 JUNCTION    SEGMENTS  (- FOR END 1, + FOR END 2)
  NONE




                                 - - - - SEGMENTATION DATA - - - -

                                        COORDINATES IN METERS

                         I+ AND I- INDICATE THE SEGMENTS BEFORE AND AFTER I


  SEG.   COORDINATES OF SEG. CENTER     SEG.     ORIENTATION ANGLES    WIRE    CONNECTION DATA   TAG
  NO.       X         Y         Z       LENGTH     ALPHA     BETA      RADIUS    I-   I    I+    NO.
     1   0.00000   0.00000  -0.14516   0.00968   90.00000   0.00000   0.00010     0    1    2      1
     2   0.00000   0.00000  -0.13548   0.00968   90.00000   0.00000   0.00010     1    2    3      1
     3   0.00000   0.00000  -0.12581   0.00968   90.00000   0.00000   0.00010     2    3    4      1
     4   0.00000   0.00000  -0.11613   0.00968   90.00000   0.00000   0.00010     3    4    5      1
     5   0.00000   0.00000  -0.10645   0.00968   90.00000   0.00000   0.00010     4    5    6      1
     6   0.00000   0.00000  -0.09677   0.00968   90.00000   0.00000   0.00010     5    6    7      1
     7   0.00000   0.00000  -0.08710   0.00968   90.00000   0.00000   0.00010     6    7    8      1
     8   0.00000   0.00000  -0.07742   0.00968   90.00000   0.00000   0.00010     7    8    9      1
     9   0.00000   0.00000  -0.06774   0.00968   90.00000   0.00000   0.00010     8    9   10      1
    10   0.00000   0.00000  -0.05806   0.00968   90.00000   0.00000   0.00010     9   10   11      1
    11   0.00000   0.00000  -0.04839   0.00968   90.00000   0.00000   0.00010    10   11   12      1
    12   0.00000   0.00000  -0.03871   0.00968   90.00000   0.00000   0.00010    11   12   13      1
    13   0.00000   0.00000  -0.02903   0.00968   90.00000   0.00000   0.00010    12   13   14      1
    14   0.00000   0.00000  -0.01935   0.00968   90.00000   0.00000   0.00010    13   14   15      1
    15   0.00000   0.00000  -0.00968   0.00968   90.00000   0.00000   0.00010    14   15   16      1
    16   0.00000   0.00000   0.00000   0.00968   90.00000   0.00000   0.00010    15   16   17      1
    17   0.00000   0.00000   0.00968   0.00968   90.00000   0.00000   0.00010    16   17   18      1
    18   0.00000   0.00000   0.01935   0.00968   90.00000   0.00000   0.00010    17   18   19      1
    19   0.00000   0.00000   0.02903   0.00968   90.00000   0.00000   0.00010    18   19   20      1
    20   0.00000   0.00000   0.03871   0.00968   90.00000   0.00000   0.00010    19   20   21      1
    21   0.00000   0.00000   0.04839   0.00968   90.00000   0.00000   0.00010    20   21   22      1
    22   0.00000   0.00000   0.05806   0.00968   90.00000   0.00000   0.00010    21   22   23      1
    23   0.00000   0.00000   0.06774   0.00968   90.00000   0.00000   0.00010    22   23   24      1
    24   0.00000   0.00000   0.07742   0.00968   90.00000   0.00000   0.00010    23   24   25      1
    25   0.00000   0.00000   0.08710   0.00968   90.00000   0.00000   0.00010    24   25   26      1
    26   0.00000   0.00000   0.09677   0.00968   90.00000   0.00000   0.00010    25   26   27      1
    27   0.00000   0.00000   0.10645   0.00968   90.00000   0.00000   0.00010    26   27   28      1
    28   0.00000   0.00000   0.11613   0.00968   90.00000   0.00000   0.00010    27   28   29      1
    29   0.00000   0.00000   0.12581   0.00968   90.00000   0.00000   0.00010    28   29   30      1
    30   0.00000   0.00000   0.13548   0.00968   90.00000   0.00000   0.00010    29   30   31      1
    31   0.00000   0.00000   0.14516   0.00968   90.00000   0.00000   0.00010    30   31    0      1






 ***** DATA CARD NO.  1   EX   0     1    16     0  1.00000E+00  0.00000E+00  0.00000E+00  0.00000E+00  0.00000E+00  0.00000E+00
 ***** DATA CARD NO.  2   FR   0     1     0     0  1.50000E+03  0.00000E+00  0.00000E+00  0.00000E+00  0.00000E+00  0.00000E+00
 ***** DATA CARD NO.  3   RP   0    91     0  1000  0.00000E+00  0.00000E+00  4.00000E+00  0.00000E+00  0.00000E+00  0.00000E+00




                                 - - - - - - FREQUENCY - - - - - -

                                    FREQUENCY= 1.5000E+03 MHZ
                                    WAVELENGTH= 1.9987E-01 METERS




                    APPROXIMATE INTEGRATION EMPLOYED FOR SEGMENTS MORE THAN   1.000 WAVELENGTHS APART



                               - - - STRUCTURE IMPEDANCE LOADING - - -

                                   THIS STRUCTURE IS NOT LOADED



                                  - - - ANTENNA ENVIRONMENT - - -

                                            FREE SPACE



                                - - - MATRIX TIMING - - -

                        FILL=    0.000 SEC.,  FACTOR=    0.000 SEC.



                                          - - - ANTENNA INPUT PARAMETERS - - -

   TAG   SEG.    VOLTAGE (VOLTS)         CURRENT (AMPS)         IMPEDANCE (OHMS)        ADMITTANCE (MHOS)      POWER
   NO.   NO.    REAL        IMAG.       REAL        IMAG.       REAL        IMAG.       REAL        IMAG.     (WATTS)
     1    16 1.00000E+00 0.00000E+00 7.10355E-03-3.28038E-03 1.16031E+02 5.35824E+01 7.10355E-03-3.28038E-03 3.55177E-03



                             - - - CURRENTS AND LOCATION - - -

                                 DISTANCES IN WAVELENGTHS


  SEG.  TAG    COORD. OF SEG. CENTER     SEG.            - - - CURRENT (AMPS) - - -
  NO.   NO.     X        Y        Z      LENGTH     REAL        IMAG.       MAG.        PHASE
     1    1   0.0000   0.0000  -0.7263  0.04842  -1.3071E-03  7.7426E-04  1.5192E-03  149.360
     2    1   0.0000   0.0000  -0.6779  0.04842  -3.4343E-03  1.9720E-03  3.9602E-03  150.135
     3    1   0.0000   0.0000  -0.6295  0.04842  -5.1210E-03  2.8408E-03  5.8562E-03  150.981
     4    1   0.0000   0.0000  -0.5810  0.04842  -6.3144E-03  3.3671E-03  7.1561E-03  151.931
     5    1   0.0000   0.0000  -0.5326  0.04842  -6.9299E-03  3.5232E-03  7.7741E-03  153.051
     6    1   0.0000   0.0000  -0.4842  0.04842  -6.9216E-03  3.3079E-03  7.6714E-03  154.457
     7    1   0.0000   0.0000  -0.4358  0.04842  -6.2942E-03  2.7515E-03  6.8693E-03  156.387
     8    1   0.0000   0.0000  -0.3874  0.04842  -5.1045E-03  1.9146E-03  5.4518E-03  159.440
     9    1   0.0000   0.0000  -0.3389  0.04842  -3.4586E-03  8.8297E-04  3.5695E-03  165.678
    10    1   0.0000   0.0000  -0.2905  0.04842  -1.5020E-03 -2.4000E-04  1.5211E-03 -170.922
    11    1   0.0000   0.0000  -0.2421  0.04842   5.9192E-04 -1.3423E-03  1.4670E-03  -66.204
    12    1   0.0000   0.0000  -0.1937  0.04842   2.6379E-03 -2.3134E-03  3.5086E-03  -41.250
    13    1   0.0000   0.0000  -0.1453  0.04842   4.4546E-03 -3.0537E-03  5.4008E-03  -34.431
    14    1   0.0000   0.0000  -0.0968  0.04842   5.8811E-03 -3.4814E-03  6.8343E-03  -30.624
    15    1   0.0000   0.0000  -0.0484  0.04842   6.7910E-03 -3.5287E-03  7.6531E-03  -27.457
    16    1   0.0000   0.0000   0.0000  0.04842   7.1035E-03 -3.2804E-03  7.8244E-03  -24.787
    17    1   0.0000   0.0000   0.0484  0.04842   6.7910E-03 -3.5287E-03  7.6531E-03  -27.457
    18    1   0.0000   0.0000   0.0968  0.04842   5.8811E-03 -3.4814E-03  6.8343E-03  -30.624
    19    1   0.0000   0.0000   0.1453  0.04842   4.4546E-03 -3.0537E-03  5.4008E-03  -34.431
    20    1   0.0000   0.0000   0.1937  0.04842   2.6379E-03 -2.3134E-03  3.5086E-03  -41.250
    21    1   0.0000   0.0000   0.2421  0.04842   5.9192E-04 -1.3423E-03  1.4670E-03  -66.204
    22    1   0.0000   0.0000   0.2905  0.04842  -1.5020E-03 -2.4000E-04  1.5211E-03 -170.922
    23    1   0.0000   0.0000   0.3389  0.04842  -3.4586E-03  8.8297E-04  3.5695E-03  165.678
    24    1   0.0000   0.0000   0.3874  0.04842  -5.1045E-03  1.9146E-03  5.4518E-03  159.440
    25    1   0.0000   0.0000   0.4358  0.04842  -6.2942E-03  2.7515E-03  6.8693E-03  156.387
    26    1   0.0000   0.0000   0.4842  0.04842  -6.9216E-03  3.3079E-03  7.6714E-03  154.457
    27    1   0.0000   0.0000   0.5326  0.04842  -6.9299E-03  3.5232E-03  7.7741E-03  153.051
    28    1   0.0000   0.0000   0.5810  0.04842  -6.3144E-03  3.3671E-03  7.1561E-03  151.931
    29    1   0.0000   0.0000   0.6295  0.04842  -5.1210E-03  2.8408E-03  5.8562E-03  150.981
    30    1   0.0000   0.0000   0.6779  0.04842  -3.4343E-03  1.9720E-03  3.9602E-03  150.135
    31    1   0.0000   0.0000   0.7263  0.04842  -1.3071E-03  7.7426E-04  1.5192E-03  149.360



                                        - - - POWER BUDGET - - -

                                           INPUT POWER   = 3.5518E-03 WATTS
                                           RADIATED POWER= 3.5518E-03 WATTS
                                           STRUCTURE LOSS= 0.0000E+00 WATTS
                                           NETWORK LOSS  = 0.0000E+00 WATTS
                                           EFFICIENCY    = 100.00 PERCENT



                                                - - - RADIATION PATTERNS - - -

  - - ANGLES - -           - POWER GAINS -       - - - POLARIZATION - - -    - - - E(THETA) - - -    - - - E(PHI) - - -
  THETA     PHI        VERT.   HOR.    TOTAL      AXIAL     TILT   SENSE     MAGNITUDE    PHASE      MAGNITUDE    PHASE 
 DEGREES  DEGREES       DB      DB      DB        RATIO     DEG.              VOLTS/M    DEGREES      VOLTS/M    DEGREES
    0.00     0.00    -999.99 -999.99 -999.99    0.00000     0.00            0.00000E+00     0.00    0.00000E+00     0.00
    4.00     0.00     -15.42 -999.99  -15.42    0.00000     0.00  LINEAR    7.82110E-02    63.25    0.00000E+00     0.00
    8.00     0.00      -9.38 -999.99   -9.38    0.00000     0.00  LINEAR    1.56770E-01    63.18    0.00000E+00     0.00
   12.00     0.00      -5.83 -999.99   -5.83    0.00000     0.00  LINEAR    2.35818E-01    63.07    0.00000E+00     0.00
   16.00     0.00      -3.31 -999.99   -3.31    0.00000     0.00  LINEAR    3.15077E-01    62.92    0.00000E+00     0.00
   20.00     0.00      -1.38 -999.99   -1.38    0.00000     0.00  LINEAR    3.93664E-01    62.74    0.00000E+00     0.00
   24.00     0.00       0.16 -999.99    0.16    0.00000     0.00  LINEAR    4.69920E-01    62.51    0.00000E+00     0.00
   28.00     0.00       1.39 -999.99    1.39    0.00000     0.00  LINEAR    5.41294E-01    62.25    0.00000E+00     0.00
   32.00     0.00       2.34 -999.99    2.34    0.00000     0.00  LINEAR    6.04316E-01    61.94    0.00000E+00     0.00
   36.00     0.00       3.04 -999.99    3.04    0.00000     0.00  LINEAR    6.54690E-01    61.57    0.00000E+00     0.00
   40.00     0.00       3.46 -999.99    3.46    0.00000     0.00  LINEAR    6.87557E-01    61.14    0.00000E+00     0.00
   44.00     0.00       3.59 -999.99    3.59    0.00000     0.00  LINEAR    6.97940E-01    60.60    0.00000E+00     0.00
   48.00     0.00       3.38 -999.99    3.38    0.00000     0.00  LINEAR    6.81381E-01    59.91    0.00000E+00     0.00
   52.00     0.00       2.77 -999.99    2.77    0.00000     0.00  LINEAR    6.34725E-01    58.97    0.00000E+00     0.00
   56.00     0.00       1.63 -999.99    1.63    0.00000     0.00  LINEAR    5.56971E-01    57.57    0.00000E+00     0.00
   60.00     0.00      -0.22 -999.99   -0.22    0.00000     0.00  LINEAR    4.50123E-01    55.26    0.00000E+00     0.00
   64.00     0.00      -3.18 -999.99   -3.18    0.00000     0.00  LINEAR    3.20099E-01    50.72    0.00000E+00     0.00
   68.00     0.00      -8.21 -999.99   -8.21    0.00000     0.00  LINEAR    1.79423E-01    38.34    0.00000E+00     0.00
   72.00     0.00     -15.10 -999.99  -15.10    0.00000     0.00  LINEAR    8.11465E-02   -21.25    0.00000E+00     0.00
   76.00     0.00      -9.03 -999.99   -9.03    0.00000     0.00  LINEAR    1.63126E-01   -85.36    0.00000E+00     0.00
   80.00     0.00      -4.37 -999.99   -4.37    0.00000     0.00  LINEAR    2.79007E-01   -98.34    0.00000E+00     0.00
   84.00     0.00      -1.98 -999.99   -1.98    0.00000     0.00  LINEAR    3.67561E-01  -102.55    0.00000E+00     0.00
   88.00     0.00      -0.93 -999.99   -0.93    0.00000     0.00  LINEAR    4.14811E-01  -104.05    0.00000E+00     0.00
   92.00     0.00      -0.93 -999.99   -0.93    0.00000     0.00  LINEAR    4.14811E-01  -104.05    0.00000E+00     0.00
   96.00     0.00      -1.98 -999.99   -1.98    0.00000     0.00  LINEAR    3.67561E-01  -102.55    0.00000E+00     0.00
  100.00     0.00      -4.37 -999.99   -4.37    0.00000     0.00  LINEAR    2.79007E-01   -98.34    0.00000E+00     0.00
  104.00     0.00      -9.03 -999.99   -9.03    0.00000     0.00  LINEAR    1.63126E-01   -85.36    0.00000E+00     0.00
  108.00     0.00     -15.10 -999.99  -15.10    0.00000     0.00  LINEAR    8.11465E-02   -21.25    0.00000E+00     0.00
  112.00     0.00      -8.21 -999.99   -8.21    0.00000     0.00  LINEAR    1.79423E-01    38.34    0.00000E+00     0.00
  116.00     0.00      -3.18 -999.99   -3.18    0.00000     0.00  LINEAR    3.20099E-01    50.72    0.00000E+00     0.00
  120.00     0.00      -0.22 -999.99   -0.22    0.00000     0.00  LINEAR    4.50123E-01    55.26    0.00000E+00     0.00
  124.00     0.00       1.63 -999.99    1.63    0.00000     0.00  LINEAR    5.56971E-01    57.57    0.00000E+00     0.00
  128.00     0.00       2.77 -999.99    2.77    0.00000     0.00  LINEAR    6.34725E-01    58.97    0.00000E+00     0.00
  132.00     0.00       3.38 -999.99    3.38    0.00000     0.00  LINEAR    6.81381E-01    59.91    0.00000E+00     0.00
  136.00     0.00       3.59 -999.99    3.59    0.00000     0.00  LINEAR    6.97940E-01    60.60    0.00000E+00     0.00
  140.00     0.00       3.46 -999.99    3.46    0.00000     0.00  LINEAR    6.87557E-01    61.14    0.00000E+00     0.00
  144.00     0.00       3.04 -999.99    3.04    0.00000     0.00  LINEAR    6.54690E-01    61.57    0.00000E+00     0.00
  148.00     0.00       2.34 -999.99    2.34    0.00000     0.00  LINEAR    6.04316E-01    61.94    0.00000E+00     0.00
  152.00     0.00       1.39 -999.99    1.39    0.00000     0.00  LINEAR    5.41294E-01    62.25    0.00000E+00     0.00
  156.00     0.00       0.16 -999.99    0.16    0.00000     0.00  LINEAR    4.69920E-01    62.51    0.00000E+00     0.00
  160.00     0.00      -1.38 -999.99   -1.38    0.00000     0.00  LINEAR    3.93664E-01    62.74    0.00000E+00     0.00
  164.00     0.00      -3.31 -999.99   -3.31    0.00000     0.00  LINEAR    3.15077E-01    62.92    0.00000E+00     0.00
  168.00     0.00      -5.83 -999.99   -5.83    0.00000     0.00  LINEAR    2.35818E-01    63.07    0.00000E+00     0.00
  172.00     0.00      -9.38 -999.99   -9.38    0.00000     0.00  LINEAR    1.56770E-01    63.18    0.00000E+00     0.00
  176.00     0.00     -15.42 -999.99  -15.42    0.00000     0.00  LINEAR    7.82110E-02    63.25    0.00000E+00     0.00
  180.00     0.00    -999.99 -999.99 -999.99    0.00000     0.00            1.14251E-11  -116.73    0.00000E+00     0.00
  184.00     0.00     -15.42 -999.99  -15.42    0.00000     0.00  LINEAR    7.82110E-02  -116.75    0.00000E+00     0.00
  188.00     0.00      -9.38 -999.99   -9.38    0.00000     0.00  LINEAR    1.56770E-01  -116.82    0.00000E+00     0.00
  192.00     0.00      -5.83 -999.99   -5.83    0.00000     0.00  LINEAR    2.35818E-01  -116.93    0.00000E+00     0.00
  196.00     0.00      -3.31 -999.99   -3.31    0.00000     0.00  LINEAR    3.15077E-01  -117.08    0.00000E+00     0.00
  200.00     0.00      -1.38 -999.99   -1.38    0.00000     0.00  LINEAR    3.93664E-01  -117.26    0.00000E+00     0.00
  204.00     0.00       0.16 -999.99    0.16    0.00000     0.00  LINEAR    4.69920E-01  -117.49    0.00000E+00     0.00
  208.00     0.00       1.39 -999.99    1.39    0.00000     0.00  LINEAR    5.41294E-01  -117.75    0.00000E+00     0.00
  212.00     0.00       2.34 -999.99    2.34    0.00000     0.00  LINEAR    6.04316E-01  -118.06    0.00000E+00     0.00
  216.00     0.00       3.04 -999.99    3.04    0.00000     0.00  LINEAR    6.54690E-01  -118.43    0.00000E+00     0.00
  220.00     0.00       3.46 -999.99    3.46    0.00000     0.00  LINEAR    6.87557E-01  -118.86    0.00000E+00     0.00
  224.00     0.00       3.59 -999.99    3.59    0.00000     0.00  LINEAR    6.97940E-01  -119.40    0.00000E+00     0.00
  228.00     0.00       3.38 -999.99    3.38    0.00000     0.00  LINEAR    6.81381E-01  -120.09    0.00000E+00     0.00
  232.00     0.00       2.77 -999.99    2.77    0.00000     0.00  LINEAR    6.34725E-01  -121.03    0.00000E+00     0.00
  236.00     0.00       1.63 -999.99    1.63    0.00000     0.00  LINEAR    5.56971E-01  -122.43    0.00000E+00     0.00
  240.00     0.00      -0.22 -999.99   -0.22    0.00000     0.00  LINEAR    4.50123E-01  -124.74    0.00000E+00     0.00
  244.00     0.00      -3.18 -999.99   -3.18    0.00000     0.00  LINEAR    3.20099E-01  -129.28    0.00000E+00     0.00
  248.00     0.00      -8.21 -999.99   -8.21    0.00000     0.00  LINEAR    1.79423E-01  -141.66    0.00000E+00     0.00
  252.00     0.00     -15.10 -999.99  -15.10    0.00000     0.00  LINEAR    8.11465E-02   158.75    0.00000E+00     0.00
  256.00     0.00      -9.03 -999.99   -9.03    0.00000     0.00  LINEAR    1.63126E-01    94.64    0.00000E+00     0.00
  260.00     0.00      -4.37 -999.99   -4.37    0.00000     0.00  LINEAR    2.79007E-01    81.66    0.00000E+00     0.00
  264.00     0.00      -1.98 -999.99   -1.98    0.00000     0.00  LINEAR    3.67561E-01    77.45    0.00000E+00     0.00
  268.00     0.00      -0.93 -999.99   -0.93    0.00000     0.00  LINEAR    4.14811E-01    75.95    0.00000E+00     0.00
  272.00     0.00      -0.93 -999.99   -0.93    0.00000     0.00  LINEAR    4.14811E-01    75.95    0.00000E+00     0.00
  276.00     0.00      -1.98 -999.99   -1.98    0.00000     0.00  LINEAR    3.67561E-01    77.45    0.00000E+00     0.00
  280.00     0.00      -4.37 -999.99   -4.37    0.00000     0.00  LINEAR    2.79007E-01    81.66    0.00000E+00     0.00
  284.00     0.00      -9.03 -999.99   -9.03    0.00000     0.00  LINEAR    1.63126E-01    94.64    0.00000E+00     0.00
  288.00     0.00     -15.10 -999.99  -15.10    0.00000     0.00  LINEAR    8.11465E-02   158.75    0.00000E+00     0.00
  292.00     0.00      -8.21 -999.99   -8.21    0.00000     0.00  LINEAR    1.79423E-01  -141.66    0.00000E+00     0.00
  296.00     0.00      -3.18 -999.99   -3.18    0.00000     0.00  LINEAR    3.20099E-01  -129.28    0.00000E+00     0.00
