1



                                 *********************************************

                                    NUMERICAL ELECTROMAGNETICS CODE (NEC-2D)

                                 *********************************************




                                     - - - - COMMENTS - - - -


                          ECE 6370 - Homework 5.A                                                    
                          Caitlyn Caggia                                                             
                          CENTER FED HALF-WAVE DIPOLE                                                




                                 - - - STRUCTURE SPECIFICATION - - -

                                     COORDINATES MUST BE INPUT IN
                                     METERS OR BE SCALED TO METERS
                                     BEFORE STRUCTURE INPUT IS ENDED


  WIRE                                                                               NO. OF    FIRST  LAST     TAG
  NO.        X1         Y1         Z1          X2         Y2         Z2      RADIUS   SEG.     SEG.   SEG.     NO.
     1    0.00000    0.00000   -0.15000     0.00000    0.00000    0.15000    0.00010     31        1    31       1

   TOTAL SEGMENTS USED=   31     NO. SEG. IN A SYMMETRIC CELL=   31     SYMMETRY FLAG=  0


         - MULTIPLE WIRE JUNCTIONS -
 JUNCTION    SEGMENTS  (- FOR END 1, + FOR END 2)
  NONE




                                 - - - - SEGMENTATION DATA - - - -

                                        COORDINATES IN METERS

                         I+ AND I- INDICATE THE SEGMENTS BEFORE AND AFTER I


  SEG.   COORDINATES OF SEG. CENTER     SEG.     ORIENTATION ANGLES    WIRE    CONNECTION DATA   TAG
  NO.       X         Y         Z       LENGTH     ALPHA     BETA      RADIUS    I-   I    I+    NO.
     1   0.00000   0.00000  -0.14516   0.00968   90.00000   0.00000   0.00010     0    1    2      1
     2   0.00000   0.00000  -0.13548   0.00968   90.00000   0.00000   0.00010     1    2    3      1
     3   0.00000   0.00000  -0.12581   0.00968   90.00000   0.00000   0.00010     2    3    4      1
     4   0.00000   0.00000  -0.11613   0.00968   90.00000   0.00000   0.00010     3    4    5      1
     5   0.00000   0.00000  -0.10645   0.00968   90.00000   0.00000   0.00010     4    5    6      1
     6   0.00000   0.00000  -0.09677   0.00968   90.00000   0.00000   0.00010     5    6    7      1
     7   0.00000   0.00000  -0.08710   0.00968   90.00000   0.00000   0.00010     6    7    8      1
     8   0.00000   0.00000  -0.07742   0.00968   90.00000   0.00000   0.00010     7    8    9      1
     9   0.00000   0.00000  -0.06774   0.00968   90.00000   0.00000   0.00010     8    9   10      1
    10   0.00000   0.00000  -0.05806   0.00968   90.00000   0.00000   0.00010     9   10   11      1
    11   0.00000   0.00000  -0.04839   0.00968   90.00000   0.00000   0.00010    10   11   12      1
    12   0.00000   0.00000  -0.03871   0.00968   90.00000   0.00000   0.00010    11   12   13      1
    13   0.00000   0.00000  -0.02903   0.00968   90.00000   0.00000   0.00010    12   13   14      1
    14   0.00000   0.00000  -0.01935   0.00968   90.00000   0.00000   0.00010    13   14   15      1
    15   0.00000   0.00000  -0.00968   0.00968   90.00000   0.00000   0.00010    14   15   16      1
    16   0.00000   0.00000   0.00000   0.00968   90.00000   0.00000   0.00010    15   16   17      1
    17   0.00000   0.00000   0.00968   0.00968   90.00000   0.00000   0.00010    16   17   18      1
    18   0.00000   0.00000   0.01935   0.00968   90.00000   0.00000   0.00010    17   18   19      1
    19   0.00000   0.00000   0.02903   0.00968   90.00000   0.00000   0.00010    18   19   20      1
    20   0.00000   0.00000   0.03871   0.00968   90.00000   0.00000   0.00010    19   20   21      1
    21   0.00000   0.00000   0.04839   0.00968   90.00000   0.00000   0.00010    20   21   22      1
    22   0.00000   0.00000   0.05806   0.00968   90.00000   0.00000   0.00010    21   22   23      1
    23   0.00000   0.00000   0.06774   0.00968   90.00000   0.00000   0.00010    22   23   24      1
    24   0.00000   0.00000   0.07742   0.00968   90.00000   0.00000   0.00010    23   24   25      1
    25   0.00000   0.00000   0.08710   0.00968   90.00000   0.00000   0.00010    24   25   26      1
    26   0.00000   0.00000   0.09677   0.00968   90.00000   0.00000   0.00010    25   26   27      1
    27   0.00000   0.00000   0.10645   0.00968   90.00000   0.00000   0.00010    26   27   28      1
    28   0.00000   0.00000   0.11613   0.00968   90.00000   0.00000   0.00010    27   28   29      1
    29   0.00000   0.00000   0.12581   0.00968   90.00000   0.00000   0.00010    28   29   30      1
    30   0.00000   0.00000   0.13548   0.00968   90.00000   0.00000   0.00010    29   30   31      1
    31   0.00000   0.00000   0.14516   0.00968   90.00000   0.00000   0.00010    30   31    0      1






 ***** DATA CARD NO.  1   EX   0     1    16     0  1.00000E+00  0.00000E+00  0.00000E+00  0.00000E+00  0.00000E+00  0.00000E+00
 ***** DATA CARD NO.  2   FR   0   200     0     0  1.00000E+01  1.00000E+01  0.00000E+00  0.00000E+00  0.00000E+00  0.00000E+00
 ***** DATA CARD NO.  3   RP   0     1     0  1000  9.00000E+01  0.00000E+00  0.00000E+00  0.00000E+00  0.00000E+00  0.00000E+00




                                 - - - - - - FREQUENCY - - - - - -

                                    FREQUENCY= 1.0000E+01 MHZ
                                    WAVELENGTH= 2.9980E+01 METERS




                    APPROXIMATE INTEGRATION EMPLOYED FOR SEGMENTS MORE THAN   1.000 WAVELENGTHS APART



                               - - - STRUCTURE IMPEDANCE LOADING - - -

                                   THIS STRUCTURE IS NOT LOADED



                                  - - - ANTENNA ENVIRONMENT - - -

                                            FREE SPACE



                                - - - MATRIX TIMING - - -

                        FILL=    0.000 SEC.,  FACTOR=    0.000 SEC.



                                          - - - ANTENNA INPUT PARAMETERS - - -

   TAG   SEG.    VOLTAGE (VOLTS)         CURRENT (AMPS)         IMPEDANCE (OHMS)        ADMITTANCE (MHOS)      POWER
   NO.   NO.    REAL        IMAG.       REAL        IMAG.       REAL        IMAG.       REAL        IMAG.     (WATTS)
     1    16 1.00000E+00 0.00000E+00 3.23997E-11 4.09650E-05 1.93070E-02-2.44111E+04 3.23997E-11 4.09650E-05 1.61999E-11



                             - - - CURRENTS AND LOCATION - - -

                                 DISTANCES IN WAVELENGTHS


  SEG.  TAG    COORD. OF SEG. CENTER     SEG.            - - - CURRENT (AMPS) - - -
  NO.   NO.     X        Y        Z      LENGTH     REAL        IMAG.       MAG.        PHASE
     1    1   0.0000   0.0000  -0.0048  0.00032   2.6885E-12  1.6242E-06  1.6242E-06   90.000
     2    1   0.0000   0.0000  -0.0045  0.00032   7.0255E-12  4.3931E-06  4.3931E-06   90.000
     3    1   0.0000   0.0000  -0.0042  0.00032   1.0759E-11  6.9747E-06  6.9747E-06   90.000
     4    1   0.0000   0.0000  -0.0039  0.00032   1.4106E-11  9.4927E-06  9.4927E-06   90.000
     5    1   0.0000   0.0000  -0.0036  0.00032   1.7122E-11  1.1978E-05  1.1978E-05   90.000
     6    1   0.0000   0.0000  -0.0032  0.00032   1.9836E-11  1.4449E-05  1.4449E-05   90.000
     7    1   0.0000   0.0000  -0.0029  0.00032   2.2264E-11  1.6916E-05  1.6916E-05   90.000
     8    1   0.0000   0.0000  -0.0026  0.00032   2.4418E-11  1.9389E-05  1.9389E-05   90.000
     9    1   0.0000   0.0000  -0.0023  0.00032   2.6305E-11  2.1878E-05  2.1878E-05   90.000
    10    1   0.0000   0.0000  -0.0019  0.00032   2.7932E-11  2.4392E-05  2.4392E-05   90.000
    11    1   0.0000   0.0000  -0.0016  0.00032   2.9303E-11  2.6945E-05  2.6945E-05   90.000
    12    1   0.0000   0.0000  -0.0013  0.00032   3.0421E-11  2.9553E-05  2.9553E-05   90.000
    13    1   0.0000   0.0000  -0.0010  0.00032   3.1288E-11  3.2245E-05  3.2245E-05   90.000
    14    1   0.0000   0.0000  -0.0006  0.00032   3.1906E-11  3.5072E-05  3.5072E-05   90.000
    15    1   0.0000   0.0000  -0.0003  0.00032   3.2276E-11  3.8189E-05  3.8189E-05   90.000
    16    1   0.0000   0.0000   0.0000  0.00032   3.2400E-11  4.0965E-05  4.0965E-05   90.000
    17    1   0.0000   0.0000   0.0003  0.00032   3.2276E-11  3.8189E-05  3.8189E-05   90.000
    18    1   0.0000   0.0000   0.0006  0.00032   3.1906E-11  3.5072E-05  3.5072E-05   90.000
    19    1   0.0000   0.0000   0.0010  0.00032   3.1288E-11  3.2245E-05  3.2245E-05   90.000
    20    1   0.0000   0.0000   0.0013  0.00032   3.0421E-11  2.9553E-05  2.9553E-05   90.000
    21    1   0.0000   0.0000   0.0016  0.00032   2.9303E-11  2.6945E-05  2.6945E-05   90.000
    22    1   0.0000   0.0000   0.0019  0.00032   2.7932E-11  2.4392E-05  2.4392E-05   90.000
    23    1   0.0000   0.0000   0.0023  0.00032   2.6305E-11  2.1878E-05  2.1878E-05   90.000
    24    1   0.0000   0.0000   0.0026  0.00032   2.4418E-11  1.9389E-05  1.9389E-05   90.000
    25    1   0.0000   0.0000   0.0029  0.00032   2.2264E-11  1.6916E-05  1.6916E-05   90.000
    26    1   0.0000   0.0000   0.0032  0.00032   1.9836E-11  1.4449E-05  1.4449E-05   90.000
    27    1   0.0000   0.0000   0.0036  0.00032   1.7122E-11  1.1978E-05  1.1978E-05   90.000
    28    1   0.0000   0.0000   0.0039  0.00032   1.4106E-11  9.4927E-06  9.4927E-06   90.000
    29    1   0.0000   0.0000   0.0042  0.00032   1.0759E-11  6.9747E-06  6.9747E-06   90.000
    30    1   0.0000   0.0000   0.0045  0.00032   7.0255E-12  4.3931E-06  4.3931E-06   90.000
    31    1   0.0000   0.0000   0.0048  0.00032   2.6885E-12  1.6242E-06  1.6242E-06   90.000



                                        - - - POWER BUDGET - - -

                                           INPUT POWER   = 1.6200E-11 WATTS
                                           RADIATED POWER= 1.6200E-11 WATTS
                                           STRUCTURE LOSS= 0.0000E+00 WATTS
                                           NETWORK LOSS  = 0.0000E+00 WATTS
                                           EFFICIENCY    = 100.00 PERCENT



                                                - - - RADIATION PATTERNS - - -

  - - ANGLES - -           - POWER GAINS -       - - - POLARIZATION - - -    - - - E(THETA) - - -    - - - E(PHI) - - -
  THETA     PHI        VERT.   HOR.    TOTAL      AXIAL     TILT   SENSE     MAGNITUDE    PHASE      MAGNITUDE    PHASE 
 DEGREES  DEGREES       DB      DB      DB        RATIO     DEG.              VOLTS/M    DEGREES      VOLTS/M    DEGREES
   90.00     0.00       1.76 -999.99    1.76    0.00000     0.00  LINEAR    3.81641E-05   180.00    0.00000E+00     0.00




                                 - - - - - - FREQUENCY - - - - - -

                                    FREQUENCY= 2.0000E+01 MHZ
                                    WAVELENGTH= 1.4990E+01 METERS




                    APPROXIMATE INTEGRATION EMPLOYED FOR SEGMENTS MORE THAN   1.000 WAVELENGTHS APART



                               - - - STRUCTURE IMPEDANCE LOADING - - -

                                   THIS STRUCTURE IS NOT LOADED



                                  - - - ANTENNA ENVIRONMENT - - -

                                            FREE SPACE



                                - - - MATRIX TIMING - - -

                        FILL=    0.000 SEC.,  FACTOR=    0.000 SEC.



                                          - - - ANTENNA INPUT PARAMETERS - - -

   TAG   SEG.    VOLTAGE (VOLTS)         CURRENT (AMPS)         IMPEDANCE (OHMS)        ADMITTANCE (MHOS)      POWER
   NO.   NO.    REAL        IMAG.       REAL        IMAG.       REAL        IMAG.       REAL        IMAG.     (WATTS)
     1    16 1.00000E+00 0.00000E+00 5.19774E-10 8.20169E-05 7.72695E-02-1.21926E+04 5.19774E-10 8.20169E-05 2.59887E-10



                             - - - CURRENTS AND LOCATION - - -

                                 DISTANCES IN WAVELENGTHS


  SEG.  TAG    COORD. OF SEG. CENTER     SEG.            - - - CURRENT (AMPS) - - -
  NO.   NO.     X        Y        Z      LENGTH     REAL        IMAG.       MAG.        PHASE
     1    1   0.0000   0.0000  -0.0097  0.00065   4.3119E-11  3.2539E-06  3.2539E-06   89.999
     2    1   0.0000   0.0000  -0.0090  0.00065   1.1268E-10  8.8012E-06  8.8012E-06   89.999
     3    1   0.0000   0.0000  -0.0084  0.00065   1.7256E-10  1.3973E-05  1.3973E-05   89.999
     4    1   0.0000   0.0000  -0.0077  0.00065   2.2625E-10  1.9017E-05  1.9017E-05   89.999
     5    1   0.0000   0.0000  -0.0071  0.00065   2.7464E-10  2.3997E-05  2.3997E-05   89.999
     6    1   0.0000   0.0000  -0.0065  0.00065   3.1817E-10  2.8945E-05  2.8945E-05   89.999
     7    1   0.0000   0.0000  -0.0058  0.00065   3.5713E-10  3.3886E-05  3.3886E-05   89.999
     8    1   0.0000   0.0000  -0.0052  0.00065   3.9169E-10  3.8838E-05  3.8838E-05   89.999
     9    1   0.0000   0.0000  -0.0045  0.00065   4.2198E-10  4.3821E-05  4.3821E-05   89.999
    10    1   0.0000   0.0000  -0.0039  0.00065   4.4809E-10  4.8855E-05  4.8855E-05   89.999
    11    1   0.0000   0.0000  -0.0032  0.00065   4.7008E-10  5.3965E-05  5.3965E-05   90.000
    12    1   0.0000   0.0000  -0.0026  0.00065   4.8802E-10  5.9186E-05  5.9186E-05   90.000
    13    1   0.0000   0.0000  -0.0019  0.00065   5.0193E-10  6.4573E-05  6.4573E-05   90.000
    14    1   0.0000   0.0000  -0.0013  0.00065   5.1185E-10  7.0229E-05  7.0229E-05   90.000
    15    1   0.0000   0.0000  -0.0006  0.00065   5.1779E-10  7.6463E-05  7.6463E-05   90.000
    16    1   0.0000   0.0000   0.0000  0.00065   5.1977E-10  8.2017E-05  8.2017E-05   90.000
    17    1   0.0000   0.0000   0.0006  0.00065   5.1779E-10  7.6463E-05  7.6463E-05   90.000
    18    1   0.0000   0.0000   0.0013  0.00065   5.1185E-10  7.0229E-05  7.0229E-05   90.000
    19    1   0.0000   0.0000   0.0019  0.00065   5.0193E-10  6.4573E-05  6.4573E-05   90.000
    20    1   0.0000   0.0000   0.0026  0.00065   4.8802E-10  5.9186E-05  5.9186E-05   90.000
    21    1   0.0000   0.0000   0.0032  0.00065   4.7008E-10  5.3965E-05  5.3965E-05   90.000
    22    1   0.0000   0.0000   0.0039  0.00065   4.4809E-10  4.8855E-05  4.8855E-05   89.999
    23    1   0.0000   0.0000   0.0045  0.00065   4.2198E-10  4.3821E-05  4.3821E-05   89.999
    24    1   0.0000   0.0000   0.0052  0.00065   3.9169E-10  3.8838E-05  3.8838E-05   89.999
    25    1   0.0000   0.0000   0.0058  0.00065   3.5713E-10  3.3886E-05  3.3886E-05   89.999
    26    1   0.0000   0.0000   0.0065  0.00065   3.1817E-10  2.8945E-05  2.8945E-05   89.999
    27    1   0.0000   0.0000   0.0071  0.00065   2.7464E-10  2.3997E-05  2.3997E-05   89.999
    28    1   0.0000   0.0000   0.0077  0.00065   2.2625E-10  1.9017E-05  1.9017E-05   89.999
    29    1   0.0000   0.0000   0.0084  0.00065   1.7256E-10  1.3973E-05  1.3973E-05   89.999
    30    1   0.0000   0.0000   0.0090  0.00065   1.1268E-10  8.8012E-06  8.8012E-06   89.999
    31    1   0.0000   0.0000   0.0097  0.00065   4.3119E-11  3.2539E-06  3.2539E-06   89.999



                                        - - - POWER BUDGET - - -

                                           INPUT POWER   = 2.5989E-10 WATTS
                                           RADIATED POWER= 2.5989E-10 WATTS
                                           STRUCTURE LOSS= 0.0000E+00 WATTS
                                           NETWORK LOSS  = 0.0000E+00 WATTS
                                           EFFICIENCY    = 100.00 PERCENT



                                                - - - RADIATION PATTERNS - - -

  - - ANGLES - -           - POWER GAINS -       - - - POLARIZATION - - -    - - - E(THETA) - - -    - - - E(PHI) - - -
  THETA     PHI        VERT.   HOR.    TOTAL      AXIAL     TILT   SENSE     MAGNITUDE    PHASE      MAGNITUDE    PHASE 
 DEGREES  DEGREES       DB      DB      DB        RATIO     DEG.              VOLTS/M    DEGREES      VOLTS/M    DEGREES
   90.00     0.00       1.76 -999.99    1.76    0.00000     0.00  LINEAR    1.52867E-04   180.00    0.00000E+00     0.00




                                 - - - - - - FREQUENCY - - - - - -

                                    FREQUENCY= 3.0000E+01 MHZ
                                    WAVELENGTH= 9.9933E+00 METERS




                    APPROXIMATE INTEGRATION EMPLOYED FOR SEGMENTS MORE THAN   1.000 WAVELENGTHS APART



                               - - - STRUCTURE IMPEDANCE LOADING - - -

                                   THIS STRUCTURE IS NOT LOADED



                                  - - - ANTENNA ENVIRONMENT - - -

                                            FREE SPACE



                                - - - MATRIX TIMING - - -

                        FILL=    0.000 SEC.,  FACTOR=    0.000 SEC.



                                          - - - ANTENNA INPUT PARAMETERS - - -

   TAG   SEG.    VOLTAGE (VOLTS)         CURRENT (AMPS)         IMPEDANCE (OHMS)        ADMITTANCE (MHOS)      POWER
   NO.   NO.    REAL        IMAG.       REAL        IMAG.       REAL        IMAG.       REAL        IMAG.     (WATTS)
     1    16 1.00000E+00 0.00000E+00 2.64305E-09 1.23243E-04 1.74012E-01-8.11403E+03 2.64305E-09 1.23243E-04 1.32153E-09



                             - - - CURRENTS AND LOCATION - - -

                                 DISTANCES IN WAVELENGTHS


  SEG.  TAG    COORD. OF SEG. CENTER     SEG.            - - - CURRENT (AMPS) - - -
  NO.   NO.     X        Y        Z      LENGTH     REAL        IMAG.       MAG.        PHASE
     1    1   0.0000   0.0000  -0.0145  0.00097   2.1915E-10  4.8950E-06  4.8950E-06   89.997
     2    1   0.0000   0.0000  -0.0136  0.00097   5.7274E-10  1.3240E-05  1.3240E-05   89.998
     3    1   0.0000   0.0000  -0.0126  0.00097   8.7714E-10  2.1019E-05  2.1019E-05   89.998
     4    1   0.0000   0.0000  -0.0116  0.00097   1.1501E-09  2.8606E-05  2.8606E-05   89.998
     5    1   0.0000   0.0000  -0.0107  0.00097   1.3962E-09  3.6094E-05  3.6094E-05   89.998
     6    1   0.0000   0.0000  -0.0097  0.00097   1.6176E-09  4.3535E-05  4.3535E-05   89.998
     7    1   0.0000   0.0000  -0.0087  0.00097   1.8157E-09  5.0963E-05  5.0963E-05   89.998
     8    1   0.0000   0.0000  -0.0077  0.00097   1.9915E-09  5.8408E-05  5.8408E-05   89.998
     9    1   0.0000   0.0000  -0.0068  0.00097   2.1455E-09  6.5897E-05  6.5897E-05   89.998
    10    1   0.0000   0.0000  -0.0058  0.00097   2.2784E-09  7.3461E-05  7.3461E-05   89.998
    11    1   0.0000   0.0000  -0.0048  0.00097   2.3902E-09  8.1137E-05  8.1137E-05   89.998
    12    1   0.0000   0.0000  -0.0039  0.00097   2.4815E-09  8.8979E-05  8.8979E-05   89.998
    13    1   0.0000   0.0000  -0.0029  0.00097   2.5523E-09  9.7067E-05  9.7067E-05   89.998
    14    1   0.0000   0.0000  -0.0019  0.00097   2.6027E-09  1.0556E-04  1.0556E-04   89.999
    15    1   0.0000   0.0000  -0.0010  0.00097   2.6330E-09  1.1491E-04  1.1491E-04   89.999
    16    1   0.0000   0.0000   0.0000  0.00097   2.6431E-09  1.2324E-04  1.2324E-04   89.999
    17    1   0.0000   0.0000   0.0010  0.00097   2.6330E-09  1.1491E-04  1.1491E-04   89.999
    18    1   0.0000   0.0000   0.0019  0.00097   2.6027E-09  1.0556E-04  1.0556E-04   89.999
    19    1   0.0000   0.0000   0.0029  0.00097   2.5523E-09  9.7067E-05  9.7067E-05   89.998
    20    1   0.0000   0.0000   0.0039  0.00097   2.4815E-09  8.8978E-05  8.8978E-05   89.998
    21    1   0.0000   0.0000   0.0048  0.00097   2.3902E-09  8.1137E-05  8.1137E-05   89.998
    22    1   0.0000   0.0000   0.0058  0.00097   2.2784E-09  7.3461E-05  7.3461E-05   89.998
