1



                                 *********************************************

                                    NUMERICAL ELECTROMAGNETICS CODE (NEC-2D)

                                 *********************************************




                                     - - - - COMMENTS - - - -


                          ECE 6370 - Homework 5.C                                                    
                          Caitlyn Caggia                                                             
                          CENTER FED HALF-WAVE DIPOLE                                                




                                 - - - STRUCTURE SPECIFICATION - - -

                                     COORDINATES MUST BE INPUT IN
                                     METERS OR BE SCALED TO METERS
                                     BEFORE STRUCTURE INPUT IS ENDED


  WIRE                                                                               NO. OF    FIRST  LAST     TAG
  NO.        X1         Y1         Z1          X2         Y2         Z2      RADIUS   SEG.     SEG.   SEG.     NO.
     1    0.00000    0.00000   -0.15000     0.00000    0.00000    0.15000    0.00010     31        1    31       1

   TOTAL SEGMENTS USED=   31     NO. SEG. IN A SYMMETRIC CELL=   31     SYMMETRY FLAG=  0


         - MULTIPLE WIRE JUNCTIONS -
 JUNCTION    SEGMENTS  (- FOR END 1, + FOR END 2)
  NONE




                                 - - - - SEGMENTATION DATA - - - -

                                        COORDINATES IN METERS

                         I+ AND I- INDICATE THE SEGMENTS BEFORE AND AFTER I


  SEG.   COORDINATES OF SEG. CENTER     SEG.     ORIENTATION ANGLES    WIRE    CONNECTION DATA   TAG
  NO.       X         Y         Z       LENGTH     ALPHA     BETA      RADIUS    I-   I    I+    NO.
     1   0.00000   0.00000  -0.14516   0.00968   90.00000   0.00000   0.00010     0    1    2      1
     2   0.00000   0.00000  -0.13548   0.00968   90.00000   0.00000   0.00010     1    2    3      1
     3   0.00000   0.00000  -0.12581   0.00968   90.00000   0.00000   0.00010     2    3    4      1
     4   0.00000   0.00000  -0.11613   0.00968   90.00000   0.00000   0.00010     3    4    5      1
     5   0.00000   0.00000  -0.10645   0.00968   90.00000   0.00000   0.00010     4    5    6      1
     6   0.00000   0.00000  -0.09677   0.00968   90.00000   0.00000   0.00010     5    6    7      1
     7   0.00000   0.00000  -0.08710   0.00968   90.00000   0.00000   0.00010     6    7    8      1
     8   0.00000   0.00000  -0.07742   0.00968   90.00000   0.00000   0.00010     7    8    9      1
     9   0.00000   0.00000  -0.06774   0.00968   90.00000   0.00000   0.00010     8    9   10      1
    10   0.00000   0.00000  -0.05806   0.00968   90.00000   0.00000   0.00010     9   10   11      1
    11   0.00000   0.00000  -0.04839   0.00968   90.00000   0.00000   0.00010    10   11   12      1
    12   0.00000   0.00000  -0.03871   0.00968   90.00000   0.00000   0.00010    11   12   13      1
    13   0.00000   0.00000  -0.02903   0.00968   90.00000   0.00000   0.00010    12   13   14      1
    14   0.00000   0.00000  -0.01935   0.00968   90.00000   0.00000   0.00010    13   14   15      1
    15   0.00000   0.00000  -0.00968   0.00968   90.00000   0.00000   0.00010    14   15   16      1
    16   0.00000   0.00000   0.00000   0.00968   90.00000   0.00000   0.00010    15   16   17      1
    17   0.00000   0.00000   0.00968   0.00968   90.00000   0.00000   0.00010    16   17   18      1
    18   0.00000   0.00000   0.01935   0.00968   90.00000   0.00000   0.00010    17   18   19      1
    19   0.00000   0.00000   0.02903   0.00968   90.00000   0.00000   0.00010    18   19   20      1
    20   0.00000   0.00000   0.03871   0.00968   90.00000   0.00000   0.00010    19   20   21      1
    21   0.00000   0.00000   0.04839   0.00968   90.00000   0.00000   0.00010    20   21   22      1
    22   0.00000   0.00000   0.05806   0.00968   90.00000   0.00000   0.00010    21   22   23      1
    23   0.00000   0.00000   0.06774   0.00968   90.00000   0.00000   0.00010    22   23   24      1
    24   0.00000   0.00000   0.07742   0.00968   90.00000   0.00000   0.00010    23   24   25      1
    25   0.00000   0.00000   0.08710   0.00968   90.00000   0.00000   0.00010    24   25   26      1
    26   0.00000   0.00000   0.09677   0.00968   90.00000   0.00000   0.00010    25   26   27      1
    27   0.00000   0.00000   0.10645   0.00968   90.00000   0.00000   0.00010    26   27   28      1
    28   0.00000   0.00000   0.11613   0.00968   90.00000   0.00000   0.00010    27   28   29      1
    29   0.00000   0.00000   0.12581   0.00968   90.00000   0.00000   0.00010    28   29   30      1
    30   0.00000   0.00000   0.13548   0.00968   90.00000   0.00000   0.00010    29   30   31      1
    31   0.00000   0.00000   0.14516   0.00968   90.00000   0.00000   0.00010    30   31    0      1






 ***** DATA CARD NO.  1   EX   0     1    16     0  1.00000E+00  0.00000E+00  0.00000E+00  0.00000E+00  0.00000E+00  0.00000E+00
 ***** DATA CARD NO.  2   FR   0     1     0     0  1.00000E+03  0.00000E+00  0.00000E+00  0.00000E+00  0.00000E+00  0.00000E+00
 ***** DATA CARD NO.  3   RP   0    91     0  1000  0.00000E+00  0.00000E+00  4.00000E+00  0.00000E+00  0.00000E+00  0.00000E+00




                                 - - - - - - FREQUENCY - - - - - -

                                    FREQUENCY= 1.0000E+03 MHZ
                                    WAVELENGTH= 2.9980E-01 METERS




                    APPROXIMATE INTEGRATION EMPLOYED FOR SEGMENTS MORE THAN   1.000 WAVELENGTHS APART



                               - - - STRUCTURE IMPEDANCE LOADING - - -

                                   THIS STRUCTURE IS NOT LOADED



                                  - - - ANTENNA ENVIRONMENT - - -

                                            FREE SPACE



                                - - - MATRIX TIMING - - -

                        FILL=    0.016 SEC.,  FACTOR=    0.000 SEC.



                                          - - - ANTENNA INPUT PARAMETERS - - -

   TAG   SEG.    VOLTAGE (VOLTS)         CURRENT (AMPS)         IMPEDANCE (OHMS)        ADMITTANCE (MHOS)      POWER
   NO.   NO.    REAL        IMAG.       REAL        IMAG.       REAL        IMAG.       REAL        IMAG.     (WATTS)
     1    16 1.00000E+00 0.00000E+00 3.14706E-04 2.40317E-04 2.00715E+03-1.53271E+03 3.14706E-04 2.40317E-04 1.57353E-04



                             - - - CURRENTS AND LOCATION - - -

                                 DISTANCES IN WAVELENGTHS


  SEG.  TAG    COORD. OF SEG. CENTER     SEG.            - - - CURRENT (AMPS) - - -
  NO.   NO.     X        Y        Z      LENGTH     REAL        IMAG.       MAG.        PHASE
     1    1   0.0000   0.0000  -0.4842  0.03228   7.7694E-06 -1.7077E-04  1.7095E-04  -87.395
     2    1   0.0000   0.0000  -0.4519  0.03228   2.4616E-05 -4.5447E-04  4.5514E-04  -86.900
     3    1   0.0000   0.0000  -0.4196  0.03228   4.4564E-05 -6.9954E-04  7.0096E-04  -86.355
     4    1   0.0000   0.0000  -0.3874  0.03228   6.7526E-05 -9.0916E-04  9.1167E-04  -85.752
     5    1   0.0000   0.0000  -0.3551  0.03228   9.2971E-05 -1.0780E-03  1.0820E-03  -85.071
     6    1   0.0000   0.0000  -0.3228  0.03228   1.2022E-04 -1.2008E-03  1.2068E-03  -84.283
     7    1   0.0000   0.0000  -0.2905  0.03228   1.4849E-04 -1.2733E-03  1.2819E-03  -83.348
     8    1   0.0000   0.0000  -0.2582  0.03228   1.7694E-04 -1.2926E-03  1.3047E-03  -82.206
     9    1   0.0000   0.0000  -0.2260  0.03228   2.0470E-04 -1.2579E-03  1.2744E-03  -80.757
    10    1   0.0000   0.0000  -0.1937  0.03228   2.3089E-04 -1.1699E-03  1.1925E-03  -78.836
    11    1   0.0000   0.0000  -0.1614  0.03228   2.5469E-04 -1.0311E-03  1.0621E-03  -76.126
    12    1   0.0000   0.0000  -0.1291  0.03228   2.7532E-04 -8.4543E-04  8.8913E-04  -71.962
    13    1   0.0000   0.0000  -0.0968  0.03228   2.9212E-04 -6.1731E-04  6.8294E-04  -64.676
    14    1   0.0000   0.0000  -0.0646  0.03228   3.0453E-04 -3.5048E-04  4.6430E-04  -49.013
    15    1   0.0000   0.0000  -0.0323  0.03228   3.1214E-04 -3.9695E-05  3.1465E-04   -7.247
    16    1   0.0000   0.0000   0.0000  0.03228   3.1471E-04  2.4032E-04  3.9597E-04   37.366
    17    1   0.0000   0.0000   0.0323  0.03228   3.1214E-04 -3.9695E-05  3.1465E-04   -7.247
    18    1   0.0000   0.0000   0.0646  0.03228   3.0453E-04 -3.5048E-04  4.6430E-04  -49.013
    19    1   0.0000   0.0000   0.0968  0.03228   2.9212E-04 -6.1731E-04  6.8294E-04  -64.676
    20    1   0.0000   0.0000   0.1291  0.03228   2.7532E-04 -8.4543E-04  8.8913E-04  -71.962
    21    1   0.0000   0.0000   0.1614  0.03228   2.5469E-04 -1.0311E-03  1.0621E-03  -76.126
    22    1   0.0000   0.0000   0.1937  0.03228   2.3089E-04 -1.1699E-03  1.1925E-03  -78.836
    23    1   0.0000   0.0000   0.2260  0.03228   2.0470E-04 -1.2579E-03  1.2744E-03  -80.757
    24    1   0.0000   0.0000   0.2582  0.03228   1.7694E-04 -1.2926E-03  1.3047E-03  -82.206
    25    1   0.0000   0.0000   0.2905  0.03228   1.4849E-04 -1.2733E-03  1.2819E-03  -83.348
    26    1   0.0000   0.0000   0.3228  0.03228   1.2022E-04 -1.2008E-03  1.2068E-03  -84.283
    27    1   0.0000   0.0000   0.3551  0.03228   9.2971E-05 -1.0780E-03  1.0820E-03  -85.071
    28    1   0.0000   0.0000   0.3874  0.03228   6.7526E-05 -9.0916E-04  9.1167E-04  -85.752
    29    1   0.0000   0.0000   0.4196  0.03228   4.4564E-05 -6.9954E-04  7.0096E-04  -86.355
    30    1   0.0000   0.0000   0.4519  0.03228   2.4616E-05 -4.5447E-04  4.5514E-04  -86.900
    31    1   0.0000   0.0000   0.4842  0.03228   7.7693E-06 -1.7077E-04  1.7095E-04  -87.395



                                        - - - POWER BUDGET - - -

                                           INPUT POWER   = 1.5735E-04 WATTS
                                           RADIATED POWER= 1.5735E-04 WATTS
                                           STRUCTURE LOSS= 0.0000E+00 WATTS
                                           NETWORK LOSS  = 0.0000E+00 WATTS
                                           EFFICIENCY    = 100.00 PERCENT



                                                - - - RADIATION PATTERNS - - -

  - - ANGLES - -           - POWER GAINS -       - - - POLARIZATION - - -    - - - E(THETA) - - -    - - - E(PHI) - - -
  THETA     PHI        VERT.   HOR.    TOTAL      AXIAL     TILT   SENSE     MAGNITUDE    PHASE      MAGNITUDE    PHASE 
 DEGREES  DEGREES       DB      DB      DB        RATIO     DEG.              VOLTS/M    DEGREES      VOLTS/M    DEGREES
    0.00     0.00    -999.99 -999.99 -999.99    0.00000     0.00            0.00000E+00     0.00    0.00000E+00     0.00
    4.00     0.00     -37.68 -999.99  -37.68    0.00000     0.00  LINEAR    1.26935E-03   130.05    0.00000E+00     0.00
    8.00     0.00     -32.03 -999.99  -32.03    0.00000     0.00  LINEAR    2.43178E-03   126.06    0.00000E+00     0.00
   12.00     0.00     -29.06 -999.99  -29.06    0.00000     0.00  LINEAR    3.42399E-03   118.64    0.00000E+00     0.00
   16.00     0.00     -27.09 -999.99  -27.09    0.00000     0.00  LINEAR    4.29468E-03   106.83    0.00000E+00     0.00
   20.00     0.00     -25.26 -999.99  -25.26    0.00000     0.00  LINEAR    5.30271E-03    90.42    0.00000E+00     0.00
   24.00     0.00     -22.91 -999.99  -22.91    0.00000     0.00  LINEAR    6.94453E-03    71.84    0.00000E+00     0.00
   28.00     0.00     -19.97 -999.99  -19.97    0.00000     0.00  LINEAR    9.74583E-03    55.31    0.00000E+00     0.00
   32.00     0.00     -16.81 -999.99  -16.81    0.00000     0.00  LINEAR    1.40230E-02    42.96    0.00000E+00     0.00
   36.00     0.00     -13.77 -999.99  -13.77    0.00000     0.00  LINEAR    1.99012E-02    34.37    0.00000E+00     0.00
   40.00     0.00     -10.99 -999.99  -10.99    0.00000     0.00  LINEAR    2.74094E-02    28.42    0.00000E+00     0.00
   44.00     0.00      -8.50 -999.99   -8.50    0.00000     0.00  LINEAR    3.65105E-02    24.22    0.00000E+00     0.00
   48.00     0.00      -6.29 -999.99   -6.29    0.00000     0.00  LINEAR    4.70945E-02    21.17    0.00000E+00     0.00
   52.00     0.00      -4.34 -999.99   -4.34    0.00000     0.00  LINEAR    5.89638E-02    18.92    0.00000E+00     0.00
   56.00     0.00      -2.62 -999.99   -2.62    0.00000     0.00  LINEAR    7.18250E-02    17.22    0.00000E+00     0.00
   60.00     0.00      -1.13 -999.99   -1.13    0.00000     0.00  LINEAR    8.52880E-02    15.92    0.00000E+00     0.00
   64.00     0.00       0.15 -999.99    0.15    0.00000     0.00  LINEAR    9.88758E-02    14.91    0.00000E+00     0.00
   68.00     0.00       1.24 -999.99    1.24    0.00000     0.00  LINEAR    1.12045E-01    14.14    0.00000E+00     0.00
   72.00     0.00       2.14 -999.99    2.14    0.00000     0.00  LINEAR    1.24215E-01    13.55    0.00000E+00     0.00
   76.00     0.00       2.85 -999.99    2.85    0.00000     0.00  LINEAR    1.34808E-01    13.11    0.00000E+00     0.00
   80.00     0.00       3.38 -999.99    3.38    0.00000     0.00  LINEAR    1.43290E-01    12.80    0.00000E+00     0.00
   84.00     0.00       3.73 -999.99    3.73    0.00000     0.00  LINEAR    1.49216E-01    12.60    0.00000E+00     0.00
   88.00     0.00       3.90 -999.99    3.90    0.00000     0.00  LINEAR    1.52262E-01    12.50    0.00000E+00     0.00
   92.00     0.00       3.90 -999.99    3.90    0.00000     0.00  LINEAR    1.52262E-01    12.50    0.00000E+00     0.00
   96.00     0.00       3.73 -999.99    3.73    0.00000     0.00  LINEAR    1.49216E-01    12.60    0.00000E+00     0.00
  100.00     0.00       3.38 -999.99    3.38    0.00000     0.00  LINEAR    1.43290E-01    12.80    0.00000E+00     0.00
  104.00     0.00       2.85 -999.99    2.85    0.00000     0.00  LINEAR    1.34808E-01    13.11    0.00000E+00     0.00
  108.00     0.00       2.14 -999.99    2.14    0.00000     0.00  LINEAR    1.24215E-01    13.55    0.00000E+00     0.00
  112.00     0.00       1.24 -999.99    1.24    0.00000     0.00  LINEAR    1.12045E-01    14.14    0.00000E+00     0.00
  116.00     0.00       0.15 -999.99    0.15    0.00000     0.00  LINEAR    9.88758E-02    14.91    0.00000E+00     0.00
  120.00     0.00      -1.13 -999.99   -1.13    0.00000     0.00  LINEAR    8.52880E-02    15.92    0.00000E+00     0.00
  124.00     0.00      -2.62 -999.99   -2.62    0.00000     0.00  LINEAR    7.18250E-02    17.22    0.00000E+00     0.00
  128.00     0.00      -4.34 -999.99   -4.34    0.00000     0.00  LINEAR    5.89638E-02    18.92    0.00000E+00     0.00
  132.00     0.00      -6.29 -999.99   -6.29    0.00000     0.00  LINEAR    4.70945E-02    21.17    0.00000E+00     0.00
  136.00     0.00      -8.50 -999.99   -8.50    0.00000     0.00  LINEAR    3.65105E-02    24.22    0.00000E+00     0.00
  140.00     0.00     -10.99 -999.99  -10.99    0.00000     0.00  LINEAR    2.74094E-02    28.42    0.00000E+00     0.00
  144.00     0.00     -13.77 -999.99  -13.77    0.00000     0.00  LINEAR    1.99012E-02    34.37    0.00000E+00     0.00
  148.00     0.00     -16.81 -999.99  -16.81    0.00000     0.00  LINEAR    1.40230E-02    42.96    0.00000E+00     0.00
  152.00     0.00     -19.97 -999.99  -19.97    0.00000     0.00  LINEAR    9.74583E-03    55.31    0.00000E+00     0.00
  156.00     0.00     -22.91 -999.99  -22.91    0.00000     0.00  LINEAR    6.94454E-03    71.84    0.00000E+00     0.00
  160.00     0.00     -25.26 -999.99  -25.26    0.00000     0.00  LINEAR    5.30272E-03    90.42    0.00000E+00     0.00
  164.00     0.00     -27.09 -999.99  -27.09    0.00000     0.00  LINEAR    4.29468E-03   106.83    0.00000E+00     0.00
  168.00     0.00     -29.06 -999.99  -29.06    0.00000     0.00  LINEAR    3.42399E-03   118.64    0.00000E+00     0.00
  172.00     0.00     -32.03 -999.99  -32.03    0.00000     0.00  LINEAR    2.43178E-03   126.06    0.00000E+00     0.00
  176.00     0.00     -37.68 -999.99  -37.68    0.00000     0.00  LINEAR    1.26935E-03   130.05    0.00000E+00     0.00
  180.00     0.00    -999.99 -999.99 -999.99    0.00000     0.00            1.88373E-13   -48.69    0.00000E+00     0.00
  184.00     0.00     -37.68 -999.99  -37.68    0.00000     0.00  LINEAR    1.26935E-03   -49.95    0.00000E+00     0.00
  188.00     0.00     -32.03 -999.99  -32.03    0.00000     0.00  LINEAR    2.43178E-03   -53.94    0.00000E+00     0.00
  192.00     0.00     -29.06 -999.99  -29.06    0.00000     0.00  LINEAR    3.42399E-03   -61.36    0.00000E+00     0.00
  196.00     0.00     -27.09 -999.99  -27.09    0.00000     0.00  LINEAR    4.29468E-03   -73.17    0.00000E+00     0.00
  200.00     0.00     -25.26 -999.99  -25.26    0.00000     0.00  LINEAR    5.30272E-03   -89.58    0.00000E+00     0.00
  204.00     0.00     -22.91 -999.99  -22.91    0.00000     0.00  LINEAR    6.94454E-03  -108.16    0.00000E+00     0.00
  208.00     0.00     -19.97 -999.99  -19.97    0.00000     0.00  LINEAR    9.74583E-03  -124.69    0.00000E+00     0.00
  212.00     0.00     -16.81 -999.99  -16.81    0.00000     0.00  LINEAR    1.40230E-02  -137.04    0.00000E+00     0.00
  216.00     0.00     -13.77 -999.99  -13.77    0.00000     0.00  LINEAR    1.99012E-02  -145.63    0.00000E+00     0.00
  220.00     0.00     -10.99 -999.99  -10.99    0.00000     0.00  LINEAR    2.74094E-02  -151.58    0.00000E+00     0.00
  224.00     0.00      -8.50 -999.99   -8.50    0.00000     0.00  LINEAR    3.65105E-02  -155.78    0.00000E+00     0.00
  228.00     0.00      -6.29 -999.99   -6.29    0.00000     0.00  LINEAR    4.70945E-02  -158.83    0.00000E+00     0.00
  232.00     0.00      -4.34 -999.99   -4.34    0.00000     0.00  LINEAR    5.89638E-02  -161.08    0.00000E+00     0.00
  236.00     0.00      -2.62 -999.99   -2.62    0.00000     0.00  LINEAR    7.18250E-02  -162.78    0.00000E+00     0.00
  240.00     0.00      -1.13 -999.99   -1.13    0.00000     0.00  LINEAR    8.52880E-02  -164.08    0.00000E+00     0.00
  244.00     0.00       0.15 -999.99    0.15    0.00000     0.00  LINEAR    9.88758E-02  -165.09    0.00000E+00     0.00
  248.00     0.00       1.24 -999.99    1.24    0.00000     0.00  LINEAR    1.12045E-01  -165.86    0.00000E+00     0.00
  252.00     0.00       2.14 -999.99    2.14    0.00000     0.00  LINEAR    1.24215E-01  -166.45    0.00000E+00     0.00
  256.00     0.00       2.85 -999.99    2.85    0.00000     0.00  LINEAR    1.34808E-01  -166.89    0.00000E+00     0.00
  260.00     0.00       3.38 -999.99    3.38    0.00000     0.00  LINEAR    1.43290E-01  -167.20    0.00000E+00     0.00
  264.00     0.00       3.73 -999.99    3.73    0.00000     0.00  LINEAR    1.49216E-01  -167.40    0.00000E+00     0.00
  268.00     0.00       3.90 -999.99    3.90    0.00000     0.00  LINEAR    1.52262E-01  -167.50    0.00000E+00     0.00
  272.00     0.00       3.90 -999.99    3.90    0.00000     0.00  LINEAR    1.52262E-01  -167.50    0.00000E+00     0.00
  276.00     0.00       3.73 -999.99    3.73    0.00000     0.00  LINEAR    1.49216E-01  -167.40    0.00000E+00     0.00
  280.00     0.00       3.38 -999.99    3.38    0.00000     0.00  LINEAR    1.43290E-01  -167.20    0.00000E+00     0.00
  284.00     0.00       2.85 -999.99    2.85    0.00000     0.00  LINEAR    1.34808E-01  -166.89    0.00000E+00     0.00
  288.00     0.00       2.14 -999.99    2.14    0.00000     0.00  LINEAR    1.24215E-01  -166.45    0.00000E+00     0.00
  292.00     0.00       1.24 -999.99    1.24    0.00000     0.00  LINEAR    1.12045E-01  -165.86    0.00000E+00     0.00
  296.00     0.00       0.15 -999.99    0.15    0.00000     0.00  LINEAR    9.88758E-02  -165.09    0.00000E+00     0.00
