1



                                 *********************************************

                                    NUMERICAL ELECTROMAGNETICS CODE (NEC-2D)

                                 *********************************************




                                     - - - - COMMENTS - - - -


                          ECE 6370 - Homework 5.C                                                    
                          Caitlyn Caggia                                                             
                          CENTER FED HALF-WAVE DIPOLE                                                




                                 - - - STRUCTURE SPECIFICATION - - -

                                     COORDINATES MUST BE INPUT IN
                                     METERS OR BE SCALED TO METERS
                                     BEFORE STRUCTURE INPUT IS ENDED


  WIRE                                                                               NO. OF    FIRST  LAST     TAG
  NO.        X1         Y1         Z1          X2         Y2         Z2      RADIUS   SEG.     SEG.   SEG.     NO.
     1    0.00000    0.00000   -0.15000     0.00000    0.00000    0.15000    0.00010     31        1    31       1

   TOTAL SEGMENTS USED=   31     NO. SEG. IN A SYMMETRIC CELL=   31     SYMMETRY FLAG=  0


         - MULTIPLE WIRE JUNCTIONS -
 JUNCTION    SEGMENTS  (- FOR END 1, + FOR END 2)
  NONE




                                 - - - - SEGMENTATION DATA - - - -

                                        COORDINATES IN METERS

                         I+ AND I- INDICATE THE SEGMENTS BEFORE AND AFTER I


  SEG.   COORDINATES OF SEG. CENTER     SEG.     ORIENTATION ANGLES    WIRE    CONNECTION DATA   TAG
  NO.       X         Y         Z       LENGTH     ALPHA     BETA      RADIUS    I-   I    I+    NO.
     1   0.00000   0.00000  -0.14516   0.00968   90.00000   0.00000   0.00010     0    1    2      1
     2   0.00000   0.00000  -0.13548   0.00968   90.00000   0.00000   0.00010     1    2    3      1
     3   0.00000   0.00000  -0.12581   0.00968   90.00000   0.00000   0.00010     2    3    4      1
     4   0.00000   0.00000  -0.11613   0.00968   90.00000   0.00000   0.00010     3    4    5      1
     5   0.00000   0.00000  -0.10645   0.00968   90.00000   0.00000   0.00010     4    5    6      1
     6   0.00000   0.00000  -0.09677   0.00968   90.00000   0.00000   0.00010     5    6    7      1
     7   0.00000   0.00000  -0.08710   0.00968   90.00000   0.00000   0.00010     6    7    8      1
     8   0.00000   0.00000  -0.07742   0.00968   90.00000   0.00000   0.00010     7    8    9      1
     9   0.00000   0.00000  -0.06774   0.00968   90.00000   0.00000   0.00010     8    9   10      1
    10   0.00000   0.00000  -0.05806   0.00968   90.00000   0.00000   0.00010     9   10   11      1
    11   0.00000   0.00000  -0.04839   0.00968   90.00000   0.00000   0.00010    10   11   12      1
    12   0.00000   0.00000  -0.03871   0.00968   90.00000   0.00000   0.00010    11   12   13      1
    13   0.00000   0.00000  -0.02903   0.00968   90.00000   0.00000   0.00010    12   13   14      1
    14   0.00000   0.00000  -0.01935   0.00968   90.00000   0.00000   0.00010    13   14   15      1
    15   0.00000   0.00000  -0.00968   0.00968   90.00000   0.00000   0.00010    14   15   16      1
    16   0.00000   0.00000   0.00000   0.00968   90.00000   0.00000   0.00010    15   16   17      1
    17   0.00000   0.00000   0.00968   0.00968   90.00000   0.00000   0.00010    16   17   18      1
    18   0.00000   0.00000   0.01935   0.00968   90.00000   0.00000   0.00010    17   18   19      1
    19   0.00000   0.00000   0.02903   0.00968   90.00000   0.00000   0.00010    18   19   20      1
    20   0.00000   0.00000   0.03871   0.00968   90.00000   0.00000   0.00010    19   20   21      1
    21   0.00000   0.00000   0.04839   0.00968   90.00000   0.00000   0.00010    20   21   22      1
    22   0.00000   0.00000   0.05806   0.00968   90.00000   0.00000   0.00010    21   22   23      1
    23   0.00000   0.00000   0.06774   0.00968   90.00000   0.00000   0.00010    22   23   24      1
    24   0.00000   0.00000   0.07742   0.00968   90.00000   0.00000   0.00010    23   24   25      1
    25   0.00000   0.00000   0.08710   0.00968   90.00000   0.00000   0.00010    24   25   26      1
    26   0.00000   0.00000   0.09677   0.00968   90.00000   0.00000   0.00010    25   26   27      1
    27   0.00000   0.00000   0.10645   0.00968   90.00000   0.00000   0.00010    26   27   28      1
    28   0.00000   0.00000   0.11613   0.00968   90.00000   0.00000   0.00010    27   28   29      1
    29   0.00000   0.00000   0.12581   0.00968   90.00000   0.00000   0.00010    28   29   30      1
    30   0.00000   0.00000   0.13548   0.00968   90.00000   0.00000   0.00010    29   30   31      1
    31   0.00000   0.00000   0.14516   0.00968   90.00000   0.00000   0.00010    30   31    0      1






 ***** DATA CARD NO.  1   EX   0     1    16     0  1.00000E+00  0.00000E+00  0.00000E+00  0.00000E+00  0.00000E+00  0.00000E+00
 ***** DATA CARD NO.  2   FR   0     1     0     0  5.00000E+02  0.00000E+00  0.00000E+00  0.00000E+00  0.00000E+00  0.00000E+00
 ***** DATA CARD NO.  3   RP   0    91     0  1000  0.00000E+00  0.00000E+00  4.00000E+00  0.00000E+00  0.00000E+00  0.00000E+00




                                 - - - - - - FREQUENCY - - - - - -

                                    FREQUENCY= 5.0000E+02 MHZ
                                    WAVELENGTH= 5.9960E-01 METERS




                    APPROXIMATE INTEGRATION EMPLOYED FOR SEGMENTS MORE THAN   1.000 WAVELENGTHS APART



                               - - - STRUCTURE IMPEDANCE LOADING - - -

                                   THIS STRUCTURE IS NOT LOADED



                                  - - - ANTENNA ENVIRONMENT - - -

                                            FREE SPACE



                                - - - MATRIX TIMING - - -

                        FILL=    0.000 SEC.,  FACTOR=    0.000 SEC.



                                          - - - ANTENNA INPUT PARAMETERS - - -

   TAG   SEG.    VOLTAGE (VOLTS)         CURRENT (AMPS)         IMPEDANCE (OHMS)        ADMITTANCE (MHOS)      POWER
   NO.   NO.    REAL        IMAG.       REAL        IMAG.       REAL        IMAG.       REAL        IMAG.     (WATTS)
     1    16 1.00000E+00 0.00000E+00 9.28439E-03-5.36163E-03 8.07711E+01 4.66444E+01 9.28439E-03-5.36163E-03 4.64219E-03



                             - - - CURRENTS AND LOCATION - - -

                                 DISTANCES IN WAVELENGTHS


  SEG.  TAG    COORD. OF SEG. CENTER     SEG.            - - - CURRENT (AMPS) - - -
  NO.   NO.     X        Y        Z      LENGTH     REAL        IMAG.       MAG.        PHASE
     1    1   0.0000   0.0000  -0.2421  0.01614   6.0962E-04 -4.3514E-04  7.4899E-04  -35.518
     2    1   0.0000   0.0000  -0.2260  0.01614   1.6431E-03 -1.1630E-03  2.0131E-03  -35.291
     3    1   0.0000   0.0000  -0.2098  0.01614   2.5899E-03 -1.8172E-03  3.1638E-03  -35.055
     4    1   0.0000   0.0000  -0.1937  0.01614   3.4866E-03 -2.4241E-03  4.2465E-03  -34.809
     5    1   0.0000   0.0000  -0.1775  0.01614   4.3354E-03 -2.9856E-03  5.2639E-03  -34.553
     6    1   0.0000   0.0000  -0.1614  0.01614   5.1333E-03 -3.4998E-03  6.2129E-03  -34.285
     7    1   0.0000   0.0000  -0.1453  0.01614   5.8759E-03 -3.9637E-03  7.0878E-03  -34.002
     8    1   0.0000   0.0000  -0.1291  0.01614   6.5578E-03 -4.3738E-03  7.8826E-03  -33.702
     9    1   0.0000   0.0000  -0.1130  0.01614   7.1737E-03 -4.7268E-03  8.5910E-03  -33.381
    10    1   0.0000   0.0000  -0.0968  0.01614   7.7187E-03 -5.0193E-03  9.2072E-03  -33.035
    11    1   0.0000   0.0000  -0.0807  0.01614   8.1882E-03 -5.2483E-03  9.7258E-03  -32.658
    12    1   0.0000   0.0000  -0.0646  0.01614   8.5781E-03 -5.4112E-03  1.0142E-02  -32.244
    13    1   0.0000   0.0000  -0.0484  0.01614   8.8850E-03 -5.5051E-03  1.0452E-02  -31.782
    14    1   0.0000   0.0000  -0.0323  0.01614   9.1062E-03 -5.5268E-03  1.0652E-02  -31.254
    15    1   0.0000   0.0000  -0.0161  0.01614   9.2397E-03 -5.4682E-03  1.0737E-02  -30.618
    16    1   0.0000   0.0000   0.0000  0.01614   9.2844E-03 -5.3616E-03  1.0721E-02  -30.006
    17    1   0.0000   0.0000   0.0161  0.01614   9.2397E-03 -5.4682E-03  1.0737E-02  -30.618
    18    1   0.0000   0.0000   0.0323  0.01614   9.1062E-03 -5.5268E-03  1.0652E-02  -31.254
    19    1   0.0000   0.0000   0.0484  0.01614   8.8850E-03 -5.5051E-03  1.0452E-02  -31.782
    20    1   0.0000   0.0000   0.0646  0.01614   8.5781E-03 -5.4112E-03  1.0142E-02  -32.244
    21    1   0.0000   0.0000   0.0807  0.01614   8.1882E-03 -5.2483E-03  9.7258E-03  -32.658
    22    1   0.0000   0.0000   0.0968  0.01614   7.7187E-03 -5.0193E-03  9.2072E-03  -33.035
    23    1   0.0000   0.0000   0.1130  0.01614   7.1737E-03 -4.7268E-03  8.5910E-03  -33.381
    24    1   0.0000   0.0000   0.1291  0.01614   6.5578E-03 -4.3738E-03  7.8826E-03  -33.702
    25    1   0.0000   0.0000   0.1453  0.01614   5.8759E-03 -3.9637E-03  7.0878E-03  -34.002
    26    1   0.0000   0.0000   0.1614  0.01614   5.1333E-03 -3.4998E-03  6.2129E-03  -34.285
    27    1   0.0000   0.0000   0.1775  0.01614   4.3354E-03 -2.9856E-03  5.2639E-03  -34.553
    28    1   0.0000   0.0000   0.1937  0.01614   3.4866E-03 -2.4241E-03  4.2465E-03  -34.809
    29    1   0.0000   0.0000   0.2098  0.01614   2.5899E-03 -1.8172E-03  3.1638E-03  -35.055
    30    1   0.0000   0.0000   0.2260  0.01614   1.6431E-03 -1.1630E-03  2.0131E-03  -35.291
    31    1   0.0000   0.0000   0.2421  0.01614   6.0962E-04 -4.3514E-04  7.4899E-04  -35.518



                                        - - - POWER BUDGET - - -

                                           INPUT POWER   = 4.6422E-03 WATTS
                                           RADIATED POWER= 4.6422E-03 WATTS
                                           STRUCTURE LOSS= 0.0000E+00 WATTS
                                           NETWORK LOSS  = 0.0000E+00 WATTS
                                           EFFICIENCY    = 100.00 PERCENT



                                                - - - RADIATION PATTERNS - - -

  - - ANGLES - -           - POWER GAINS -       - - - POLARIZATION - - -    - - - E(THETA) - - -    - - - E(PHI) - - -
  THETA     PHI        VERT.   HOR.    TOTAL      AXIAL     TILT   SENSE     MAGNITUDE    PHASE      MAGNITUDE    PHASE 
 DEGREES  DEGREES       DB      DB      DB        RATIO     DEG.              VOLTS/M    DEGREES      VOLTS/M    DEGREES
    0.00     0.00    -999.99 -999.99 -999.99    0.00000     0.00            0.00000E+00     0.00    0.00000E+00     0.00
    4.00     0.00     -23.17 -999.99  -23.17    0.00000     0.00  LINEAR    3.66422E-02    57.67    0.00000E+00     0.00
    8.00     0.00     -17.13 -999.99  -17.13    0.00000     0.00  LINEAR    7.33874E-02    57.66    0.00000E+00     0.00
   12.00     0.00     -13.59 -999.99  -13.59    0.00000     0.00  LINEAR    1.10329E-01    57.65    0.00000E+00     0.00
   16.00     0.00     -11.07 -999.99  -11.07    0.00000     0.00  LINEAR    1.47538E-01    57.64    0.00000E+00     0.00
   20.00     0.00      -9.10 -999.99   -9.10    0.00000     0.00  LINEAR    1.85057E-01    57.62    0.00000E+00     0.00
   24.00     0.00      -7.48 -999.99   -7.48    0.00000     0.00  LINEAR    2.22889E-01    57.60    0.00000E+00     0.00
   28.00     0.00      -6.11 -999.99   -6.11    0.00000     0.00  LINEAR    2.60990E-01    57.58    0.00000E+00     0.00
   32.00     0.00      -4.92 -999.99   -4.92    0.00000     0.00  LINEAR    2.99260E-01    57.55    0.00000E+00     0.00
   36.00     0.00      -3.88 -999.99   -3.88    0.00000     0.00  LINEAR    3.37543E-01    57.52    0.00000E+00     0.00
   40.00     0.00      -2.95 -999.99   -2.95    0.00000     0.00  LINEAR    3.75621E-01    57.50    0.00000E+00     0.00
   44.00     0.00      -2.12 -999.99   -2.12    0.00000     0.00  LINEAR    4.13212E-01    57.47    0.00000E+00     0.00
   48.00     0.00      -1.38 -999.99   -1.38    0.00000     0.00  LINEAR    4.49980E-01    57.44    0.00000E+00     0.00
   52.00     0.00      -0.72 -999.99   -0.72    0.00000     0.00  LINEAR    4.85532E-01    57.42    0.00000E+00     0.00
   56.00     0.00      -0.14 -999.99   -0.14    0.00000     0.00  LINEAR    5.19434E-01    57.39    0.00000E+00     0.00
   60.00     0.00       0.38 -999.99    0.38    0.00000     0.00  LINEAR    5.51221E-01    57.37    0.00000E+00     0.00
   64.00     0.00       0.83 -999.99    0.83    0.00000     0.00  LINEAR    5.80411E-01    57.35    0.00000E+00     0.00
   68.00     0.00       1.21 -999.99    1.21    0.00000     0.00  LINEAR    6.06526E-01    57.33    0.00000E+00     0.00
   72.00     0.00       1.53 -999.99    1.53    0.00000     0.00  LINEAR    6.29106E-01    57.31    0.00000E+00     0.00
   76.00     0.00       1.78 -999.99    1.78    0.00000     0.00  LINEAR    6.47732E-01    57.30    0.00000E+00     0.00
   80.00     0.00       1.97 -999.99    1.97    0.00000     0.00  LINEAR    6.62043E-01    57.29    0.00000E+00     0.00
   84.00     0.00       2.10 -999.99    2.10    0.00000     0.00  LINEAR    6.71750E-01    57.28    0.00000E+00     0.00
   88.00     0.00       2.16 -999.99    2.16    0.00000     0.00  LINEAR    6.76655E-01    57.28    0.00000E+00     0.00
   92.00     0.00       2.16 -999.99    2.16    0.00000     0.00  LINEAR    6.76655E-01    57.28    0.00000E+00     0.00
   96.00     0.00       2.10 -999.99    2.10    0.00000     0.00  LINEAR    6.71750E-01    57.28    0.00000E+00     0.00
  100.00     0.00       1.97 -999.99    1.97    0.00000     0.00  LINEAR    6.62043E-01    57.29    0.00000E+00     0.00
  104.00     0.00       1.78 -999.99    1.78    0.00000     0.00  LINEAR    6.47732E-01    57.30    0.00000E+00     0.00
  108.00     0.00       1.53 -999.99    1.53    0.00000     0.00  LINEAR    6.29106E-01    57.31    0.00000E+00     0.00
  112.00     0.00       1.21 -999.99    1.21    0.00000     0.00  LINEAR    6.06526E-01    57.33    0.00000E+00     0.00
  116.00     0.00       0.83 -999.99    0.83    0.00000     0.00  LINEAR    5.80411E-01    57.35    0.00000E+00     0.00
  120.00     0.00       0.38 -999.99    0.38    0.00000     0.00  LINEAR    5.51221E-01    57.37    0.00000E+00     0.00
  124.00     0.00      -0.14 -999.99   -0.14    0.00000     0.00  LINEAR    5.19434E-01    57.39    0.00000E+00     0.00
  128.00     0.00      -0.72 -999.99   -0.72    0.00000     0.00  LINEAR    4.85532E-01    57.42    0.00000E+00     0.00
  132.00     0.00      -1.38 -999.99   -1.38    0.00000     0.00  LINEAR    4.49980E-01    57.44    0.00000E+00     0.00
  136.00     0.00      -2.12 -999.99   -2.12    0.00000     0.00  LINEAR    4.13212E-01    57.47    0.00000E+00     0.00
  140.00     0.00      -2.95 -999.99   -2.95    0.00000     0.00  LINEAR    3.75621E-01    57.50    0.00000E+00     0.00
  144.00     0.00      -3.88 -999.99   -3.88    0.00000     0.00  LINEAR    3.37543E-01    57.52    0.00000E+00     0.00
  148.00     0.00      -4.92 -999.99   -4.92    0.00000     0.00  LINEAR    2.99260E-01    57.55    0.00000E+00     0.00
  152.00     0.00      -6.11 -999.99   -6.11    0.00000     0.00  LINEAR    2.60990E-01    57.58    0.00000E+00     0.00
  156.00     0.00      -7.48 -999.99   -7.48    0.00000     0.00  LINEAR    2.22889E-01    57.60    0.00000E+00     0.00
  160.00     0.00      -9.10 -999.99   -9.10    0.00000     0.00  LINEAR    1.85057E-01    57.62    0.00000E+00     0.00
  164.00     0.00     -11.07 -999.99  -11.07    0.00000     0.00  LINEAR    1.47538E-01    57.64    0.00000E+00     0.00
  168.00     0.00     -13.59 -999.99  -13.59    0.00000     0.00  LINEAR    1.10329E-01    57.65    0.00000E+00     0.00
  172.00     0.00     -17.13 -999.99  -17.13    0.00000     0.00  LINEAR    7.33874E-02    57.66    0.00000E+00     0.00
  176.00     0.00     -23.17 -999.99  -23.17    0.00000     0.00  LINEAR    3.66422E-02    57.67    0.00000E+00     0.00
  180.00     0.00    -999.99 -999.99 -999.99    0.00000     0.00            5.35459E-12  -122.33    0.00000E+00     0.00
  184.00     0.00     -23.17 -999.99  -23.17    0.00000     0.00  LINEAR    3.66422E-02  -122.33    0.00000E+00     0.00
  188.00     0.00     -17.13 -999.99  -17.13    0.00000     0.00  LINEAR    7.33874E-02  -122.34    0.00000E+00     0.00
  192.00     0.00     -13.59 -999.99  -13.59    0.00000     0.00  LINEAR    1.10329E-01  -122.35    0.00000E+00     0.00
  196.00     0.00     -11.07 -999.99  -11.07    0.00000     0.00  LINEAR    1.47538E-01  -122.36    0.00000E+00     0.00
  200.00     0.00      -9.10 -999.99   -9.10    0.00000     0.00  LINEAR    1.85057E-01  -122.38    0.00000E+00     0.00
  204.00     0.00      -7.48 -999.99   -7.48    0.00000     0.00  LINEAR    2.22889E-01  -122.40    0.00000E+00     0.00
  208.00     0.00      -6.11 -999.99   -6.11    0.00000     0.00  LINEAR    2.60990E-01  -122.42    0.00000E+00     0.00
  212.00     0.00      -4.92 -999.99   -4.92    0.00000     0.00  LINEAR    2.99260E-01  -122.45    0.00000E+00     0.00
  216.00     0.00      -3.88 -999.99   -3.88    0.00000     0.00  LINEAR    3.37543E-01  -122.48    0.00000E+00     0.00
  220.00     0.00      -2.95 -999.99   -2.95    0.00000     0.00  LINEAR    3.75621E-01  -122.50    0.00000E+00     0.00
  224.00     0.00      -2.12 -999.99   -2.12    0.00000     0.00  LINEAR    4.13212E-01  -122.53    0.00000E+00     0.00
  228.00     0.00      -1.38 -999.99   -1.38    0.00000     0.00  LINEAR    4.49980E-01  -122.56    0.00000E+00     0.00
  232.00     0.00      -0.72 -999.99   -0.72    0.00000     0.00  LINEAR    4.85532E-01  -122.58    0.00000E+00     0.00
  236.00     0.00      -0.14 -999.99   -0.14    0.00000     0.00  LINEAR    5.19434E-01  -122.61    0.00000E+00     0.00
  240.00     0.00       0.38 -999.99    0.38    0.00000     0.00  LINEAR    5.51221E-01  -122.63    0.00000E+00     0.00
  244.00     0.00       0.83 -999.99    0.83    0.00000     0.00  LINEAR    5.80411E-01  -122.65    0.00000E+00     0.00
  248.00     0.00       1.21 -999.99    1.21    0.00000     0.00  LINEAR    6.06526E-01  -122.67    0.00000E+00     0.00
  252.00     0.00       1.53 -999.99    1.53    0.00000     0.00  LINEAR    6.29106E-01  -122.69    0.00000E+00     0.00
  256.00     0.00       1.78 -999.99    1.78    0.00000     0.00  LINEAR    6.47732E-01  -122.70    0.00000E+00     0.00
  260.00     0.00       1.97 -999.99    1.97    0.00000     0.00  LINEAR    6.62043E-01  -122.71    0.00000E+00     0.00
  264.00     0.00       2.10 -999.99    2.10    0.00000     0.00  LINEAR    6.71750E-01  -122.72    0.00000E+00     0.00
  268.00     0.00       2.16 -999.99    2.16    0.00000     0.00  LINEAR    6.76655E-01  -122.72    0.00000E+00     0.00
  272.00     0.00       2.16 -999.99    2.16    0.00000     0.00  LINEAR    6.76655E-01  -122.72    0.00000E+00     0.00
  276.00     0.00       2.10 -999.99    2.10    0.00000     0.00  LINEAR    6.71750E-01  -122.72    0.00000E+00     0.00
  280.00     0.00       1.97 -999.99    1.97    0.00000     0.00  LINEAR    6.62043E-01  -122.71    0.00000E+00     0.00
  284.00     0.00       1.78 -999.99    1.78    0.00000     0.00  LINEAR    6.47732E-01  -122.70    0.00000E+00     0.00
  288.00     0.00       1.53 -999.99    1.53    0.00000     0.00  LINEAR    6.29106E-01  -122.69    0.00000E+00     0.00
  292.00     0.00       1.21 -999.99    1.21    0.00000     0.00  LINEAR    6.06526E-01  -122.67    0.00000E+00     0.00
  296.00     0.00       0.83 -999.99    0.83    0.00000     0.00  LINEAR    5.80411E-01  -122.65    0.00000E+00     0.00
