1



                                 *********************************************

                                    NUMERICAL ELECTROMAGNETICS CODE (NEC-2D)

                                 *********************************************




                                     - - - - COMMENTS - - - -


                          ECE 6370 - Homework 8.1                                                    
                          Caitlyn Caggia                                                             
                          Calculation 1                                                              




                                 - - - STRUCTURE SPECIFICATION - - -

                                     COORDINATES MUST BE INPUT IN
                                     METERS OR BE SCALED TO METERS
                                     BEFORE STRUCTURE INPUT IS ENDED


  WIRE                                                                               NO. OF    FIRST  LAST     TAG
  NO.        X1         Y1         Z1          X2         Y2         Z2      RADIUS   SEG.     SEG.   SEG.     NO.
     1   -0.07500    0.00000   -0.05000    -0.07500    0.00000    0.05000    0.00025     11        1    11       1
     2    0.00000    0.00000   -0.05000     0.00000    0.00000    0.05000    0.00025     11       12    22       2
     3    0.07500    0.00000   -0.05000     0.07500    0.00000    0.05000    0.00025     11       23    33       3

   TOTAL SEGMENTS USED=   33     NO. SEG. IN A SYMMETRIC CELL=   33     SYMMETRY FLAG=  0


         - MULTIPLE WIRE JUNCTIONS -
 JUNCTION    SEGMENTS  (- FOR END 1, + FOR END 2)
  NONE




                                 - - - - SEGMENTATION DATA - - - -

                                        COORDINATES IN METERS

                         I+ AND I- INDICATE THE SEGMENTS BEFORE AND AFTER I


  SEG.   COORDINATES OF SEG. CENTER     SEG.     ORIENTATION ANGLES    WIRE    CONNECTION DATA   TAG
  NO.       X         Y         Z       LENGTH     ALPHA     BETA      RADIUS    I-   I    I+    NO.
     1  -0.07500   0.00000  -0.04545   0.00909   90.00000   0.00000   0.00025     0    1    2      1
     2  -0.07500   0.00000  -0.03636   0.00909   90.00000   0.00000   0.00025     1    2    3      1
     3  -0.07500   0.00000  -0.02727   0.00909   90.00000   0.00000   0.00025     2    3    4      1
     4  -0.07500   0.00000  -0.01818   0.00909   90.00000   0.00000   0.00025     3    4    5      1
     5  -0.07500   0.00000  -0.00909   0.00909   90.00000   0.00000   0.00025     4    5    6      1
     6  -0.07500   0.00000   0.00000   0.00909   90.00000   0.00000   0.00025     5    6    7      1
     7  -0.07500   0.00000   0.00909   0.00909   90.00000   0.00000   0.00025     6    7    8      1
     8  -0.07500   0.00000   0.01818   0.00909   90.00000   0.00000   0.00025     7    8    9      1
     9  -0.07500   0.00000   0.02727   0.00909   90.00000   0.00000   0.00025     8    9   10      1
    10  -0.07500   0.00000   0.03636   0.00909   90.00000   0.00000   0.00025     9   10   11      1
    11  -0.07500   0.00000   0.04545   0.00909   90.00000   0.00000   0.00025    10   11    0      1
    12   0.00000   0.00000  -0.04545   0.00909   90.00000   0.00000   0.00025     0   12   13      2
    13   0.00000   0.00000  -0.03636   0.00909   90.00000   0.00000   0.00025    12   13   14      2
    14   0.00000   0.00000  -0.02727   0.00909   90.00000   0.00000   0.00025    13   14   15      2
    15   0.00000   0.00000  -0.01818   0.00909   90.00000   0.00000   0.00025    14   15   16      2
    16   0.00000   0.00000  -0.00909   0.00909   90.00000   0.00000   0.00025    15   16   17      2
    17   0.00000   0.00000   0.00000   0.00909   90.00000   0.00000   0.00025    16   17   18      2
    18   0.00000   0.00000   0.00909   0.00909   90.00000   0.00000   0.00025    17   18   19      2
    19   0.00000   0.00000   0.01818   0.00909   90.00000   0.00000   0.00025    18   19   20      2
    20   0.00000   0.00000   0.02727   0.00909   90.00000   0.00000   0.00025    19   20   21      2
    21   0.00000   0.00000   0.03636   0.00909   90.00000   0.00000   0.00025    20   21   22      2
    22   0.00000   0.00000   0.04545   0.00909   90.00000   0.00000   0.00025    21   22    0      2
    23   0.07500   0.00000  -0.04545   0.00909   90.00000   0.00000   0.00025     0   23   24      3
    24   0.07500   0.00000  -0.03636   0.00909   90.00000   0.00000   0.00025    23   24   25      3
    25   0.07500   0.00000  -0.02727   0.00909   90.00000   0.00000   0.00025    24   25   26      3
    26   0.07500   0.00000  -0.01818   0.00909   90.00000   0.00000   0.00025    25   26   27      3
    27   0.07500   0.00000  -0.00909   0.00909   90.00000   0.00000   0.00025    26   27   28      3
    28   0.07500   0.00000   0.00000   0.00909   90.00000   0.00000   0.00025    27   28   29      3
    29   0.07500   0.00000   0.00909   0.00909   90.00000   0.00000   0.00025    28   29   30      3
    30   0.07500   0.00000   0.01818   0.00909   90.00000   0.00000   0.00025    29   30   31      3
    31   0.07500   0.00000   0.02727   0.00909   90.00000   0.00000   0.00025    30   31   32      3
    32   0.07500   0.00000   0.03636   0.00909   90.00000   0.00000   0.00025    31   32   33      3
    33   0.07500   0.00000   0.04545   0.00909   90.00000   0.00000   0.00025    32   33    0      3






 ***** DATA CARD NO.  1   EX   0     1     6     0  8.35839E+00  4.92000E+00  0.00000E+00  0.00000E+00  0.00000E+00  0.00000E+00
 ***** DATA CARD NO.  2   EX   0     2     6     0 -2.29101E+00 -9.50497E+00  0.00000E+00  0.00000E+00  0.00000E+00  0.00000E+00
 ***** DATA CARD NO.  3   EX   0     3     6     0 -4.92000E+00  8.35839E+00  0.00000E+00  0.00000E+00  0.00000E+00  0.00000E+00
 ***** DATA CARD NO.  4   FR   0     1     0     0  1.50000E+03  0.00000E+00  0.00000E+00  0.00000E+00  0.00000E+00  0.00000E+00
 ***** DATA CARD NO.  5   RP   0   181    91  1000  0.00000E+00  0.00000E+00  2.00000E+00  2.00000E+00  0.00000E+00  0.00000E+00




                                 - - - - - - FREQUENCY - - - - - -

                                    FREQUENCY= 1.5000E+03 MHZ
                                    WAVELENGTH= 1.9987E-01 METERS




                    APPROXIMATE INTEGRATION EMPLOYED FOR SEGMENTS MORE THAN   1.000 WAVELENGTHS APART



                               - - - STRUCTURE IMPEDANCE LOADING - - -

                                   THIS STRUCTURE IS NOT LOADED



                                  - - - ANTENNA ENVIRONMENT - - -

                                            FREE SPACE



                                - - - MATRIX TIMING - - -

                        FILL=    0.000 SEC.,  FACTOR=    0.000 SEC.



                                          - - - ANTENNA INPUT PARAMETERS - - -

   TAG   SEG.    VOLTAGE (VOLTS)         CURRENT (AMPS)         IMPEDANCE (OHMS)        ADMITTANCE (MHOS)      POWER
   NO.   NO.    REAL        IMAG.       REAL        IMAG.       REAL        IMAG.       REAL        IMAG.     (WATTS)
     1     6 8.35839E+00 4.92000E+00 1.09248E-01-2.43970E-02 6.32946E+01 5.91698E+01 8.43110E-03-7.88167E-03 3.96553E-01
     2    17-2.29101E+00-9.50497E+00-5.84363E-02-1.57546E-02 7.74296E+01 1.41780E+02 2.96701E-03-5.43283E-03 1.41813E-01
     3    28-4.92000E+00 8.35839E+00 9.26499E-03 4.07485E-02 1.68935E+02 1.59151E+02 3.13608E-03-2.95446E-03 1.47504E-01



                             - - - CURRENTS AND LOCATION - - -

                                 DISTANCES IN WAVELENGTHS


  SEG.  TAG    COORD. OF SEG. CENTER     SEG.            - - - CURRENT (AMPS) - - -
  NO.   NO.     X        Y        Z      LENGTH     REAL        IMAG.       MAG.        PHASE
     1    1  -0.3753   0.0000  -0.2274  0.04548   2.1043E-02 -6.9203E-03  2.2152E-02  -18.204
     2    1  -0.3753   0.0000  -0.1819  0.04548   5.3287E-02 -1.6780E-02  5.5866E-02  -17.479
     3    1  -0.3753   0.0000  -0.1365  0.04548   7.8698E-02 -2.3507E-02  8.2133E-02  -16.631
     4    1  -0.3753   0.0000  -0.0910  0.04548   9.7130E-02 -2.7111E-02  1.0084E-01  -15.596
     5    1  -0.3753   0.0000  -0.0455  0.04548   1.0737E-01 -2.7134E-02  1.1075E-01  -14.182
     6    1  -0.3753   0.0000   0.0000  0.04548   1.0925E-01 -2.4397E-02  1.1194E-01  -12.589
     7    1  -0.3753   0.0000   0.0455  0.04548   1.0737E-01 -2.7134E-02  1.1075E-01  -14.182
     8    1  -0.3753   0.0000   0.0910  0.04548   9.7130E-02 -2.7111E-02  1.0084E-01  -15.596
     9    1  -0.3753   0.0000   0.1365  0.04548   7.8698E-02 -2.3507E-02  8.2133E-02  -16.631
    10    1  -0.3753   0.0000   0.1819  0.04548   5.3287E-02 -1.6780E-02  5.5866E-02  -17.479
    11    1  -0.3753   0.0000   0.2274  0.04548   2.1043E-02 -6.9203E-03  2.2152E-02  -18.204
    12    2   0.0000   0.0000  -0.2274  0.04548  -1.3324E-02 -2.0809E-03  1.3486E-02 -171.123
    13    2   0.0000   0.0000  -0.1819  0.04548  -3.3064E-02 -5.6106E-03  3.3537E-02 -170.369
    14    2   0.0000   0.0000  -0.1365  0.04548  -4.7661E-02 -8.8505E-03  4.8476E-02 -169.480
    15    2   0.0000   0.0000  -0.0910  0.04548  -5.7058E-02 -1.1741E-02  5.8253E-02 -168.372
    16    2   0.0000   0.0000  -0.0455  0.04548  -6.0412E-02 -1.4173E-02  6.2052E-02 -166.797
    17    2   0.0000   0.0000   0.0000  0.04548  -5.8436E-02 -1.5755E-02  6.0523E-02 -164.912
    18    2   0.0000   0.0000   0.0455  0.04548  -6.0412E-02 -1.4173E-02  6.2052E-02 -166.797
    19    2   0.0000   0.0000   0.0910  0.04548  -5.7058E-02 -1.1741E-02  5.8253E-02 -168.372
    20    2   0.0000   0.0000   0.1365  0.04548  -4.7661E-02 -8.8505E-03  4.8476E-02 -169.480
    21    2   0.0000   0.0000   0.1819  0.04548  -3.3064E-02 -5.6106E-03  3.3537E-02 -170.369
    22    2   0.0000   0.0000   0.2274  0.04548  -1.3324E-02 -2.0809E-03  1.3486E-02 -171.123
    23    3   0.3753   0.0000  -0.2274  0.04548   4.2345E-03  8.7645E-03  9.7338E-03   64.213
    24    3   0.3753   0.0000  -0.1819  0.04548   9.8871E-03  2.1904E-02  2.4032E-02   65.706
    25    3   0.3753   0.0000  -0.1365  0.04548   1.3186E-02  3.1837E-02  3.4460E-02   67.502
    26    3   0.3753   0.0000  -0.0910  0.04548   1.4178E-02  3.8512E-02  4.1039E-02   69.789
    27    3   0.3753   0.0000  -0.0455  0.04548   1.2561E-02  4.1384E-02  4.3248E-02   73.116
    28    3   0.3753   0.0000   0.0000  0.04548   9.2650E-03  4.0748E-02  4.1789E-02   77.190
    29    3   0.3753   0.0000   0.0455  0.04548   1.2561E-02  4.1384E-02  4.3248E-02   73.116
    30    3   0.3753   0.0000   0.0910  0.04548   1.4178E-02  3.8512E-02  4.1039E-02   69.789
    31    3   0.3753   0.0000   0.1365  0.04548   1.3186E-02  3.1837E-02  3.4460E-02   67.502
    32    3   0.3753   0.0000   0.1819  0.04548   9.8871E-03  2.1904E-02  2.4032E-02   65.706
    33    3   0.3753   0.0000   0.2274  0.04548   4.2345E-03  8.7645E-03  9.7338E-03   64.213



                                        - - - POWER BUDGET - - -

                                           INPUT POWER   = 6.8587E-01 WATTS
                                           RADIATED POWER= 6.8587E-01 WATTS
                                           STRUCTURE LOSS= 0.0000E+00 WATTS
                                           NETWORK LOSS  = 0.0000E+00 WATTS
                                           EFFICIENCY    = 100.00 PERCENT



                                                - - - RADIATION PATTERNS - - -

  - - ANGLES - -           - POWER GAINS -       - - - POLARIZATION - - -    - - - E(THETA) - - -    - - - E(PHI) - - -
  THETA     PHI        VERT.   HOR.    TOTAL      AXIAL     TILT   SENSE     MAGNITUDE    PHASE      MAGNITUDE    PHASE 
 DEGREES  DEGREES       DB      DB      DB        RATIO     DEG.              VOLTS/M    DEGREES      VOLTS/M    DEGREES
    0.00     0.00    -999.99 -999.99 -999.99    0.00000     0.00            0.00000E+00     0.00    0.00000E+00     0.00
    2.00     0.00     -36.56 -999.99  -36.56    0.00000     0.00  LINEAR    9.52797E-02    81.65    0.00000E+00     0.00
    4.00     0.00     -31.38 -999.99  -31.38    0.00000     0.00  LINEAR    1.72929E-01    71.49    0.00000E+00     0.00
    6.00     0.00     -28.56 -999.99  -28.56    0.00000     0.00  LINEAR    2.39442E-01    59.07    0.00000E+00     0.00
    8.00     0.00     -26.42 -999.99  -26.42    0.00000     0.00  LINEAR    3.06183E-01    44.65    0.00000E+00     0.00
   10.00     0.00     -24.36 -999.99  -24.36    0.00000     0.00  LINEAR    3.88216E-01    29.38    0.00000E+00     0.00
   12.00     0.00     -22.16 -999.99  -22.16    0.00000     0.00  LINEAR    5.00083E-01    14.93    0.00000E+00     0.00
   14.00     0.00     -19.86 -999.99  -19.86    0.00000     0.00  LINEAR    6.51552E-01     2.52    0.00000E+00     0.00
   16.00     0.00     -17.58 -999.99  -17.58    0.00000     0.00  LINEAR    8.46931E-01    -7.56    0.00000E+00     0.00
   18.00     0.00     -15.42 -999.99  -15.42    0.00000     0.00  LINEAR    1.08691E+00   -15.59    0.00000E+00     0.00
   20.00     0.00     -13.40 -999.99  -13.40    0.00000     0.00  LINEAR    1.37035E+00   -21.99    0.00000E+00     0.00
   22.00     0.00     -11.56 -999.99  -11.56    0.00000     0.00  LINEAR    1.69520E+00   -27.18    0.00000E+00     0.00
   24.00     0.00      -9.87 -999.99   -9.87    0.00000     0.00  LINEAR    2.05893E+00   -31.45    0.00000E+00     0.00
   26.00     0.00      -8.33 -999.99   -8.33    0.00000     0.00  LINEAR    2.45857E+00   -35.04    0.00000E+00     0.00
   28.00     0.00      -6.92 -999.99   -6.92    0.00000     0.00  LINEAR    2.89086E+00   -38.10    0.00000E+00     0.00
   30.00     0.00      -5.63 -999.99   -5.63    0.00000     0.00  LINEAR    3.35226E+00   -40.76    0.00000E+00     0.00
   32.00     0.00      -4.46 -999.99   -4.46    0.00000     0.00  LINEAR    3.83896E+00   -43.10    0.00000E+00     0.00
   34.00     0.00      -3.38 -999.99   -3.38    0.00000     0.00  LINEAR    4.34699E+00   -45.18    0.00000E+00     0.00
   36.00     0.00      -2.39 -999.99   -2.39    0.00000     0.00  LINEAR    4.87222E+00   -47.05    0.00000E+00     0.00
   38.00     0.00      -1.48 -999.99   -1.48    0.00000     0.00  LINEAR    5.41048E+00   -48.75    0.00000E+00     0.00
   40.00     0.00      -0.64 -999.99   -0.64    0.00000     0.00  LINEAR    5.95755E+00   -50.30    0.00000E+00     0.00
   42.00     0.00       0.13 -999.99    0.13    0.00000     0.00  LINEAR    6.50927E+00   -51.72    0.00000E+00     0.00
   44.00     0.00       0.84 -999.99    0.84    0.00000     0.00  LINEAR    7.06160E+00   -53.04    0.00000E+00     0.00
   46.00     0.00       1.49 -999.99    1.49    0.00000     0.00  LINEAR    7.61063E+00   -54.27    0.00000E+00     0.00
   48.00     0.00       2.09 -999.99    2.09    0.00000     0.00  LINEAR    8.15265E+00   -55.41    0.00000E+00     0.00
   50.00     0.00       2.63 -999.99    2.63    0.00000     0.00  LINEAR    8.68420E+00   -56.48    0.00000E+00     0.00
   52.00     0.00       3.14 -999.99    3.14    0.00000     0.00  LINEAR    9.20211E+00   -57.47    0.00000E+00     0.00
   54.00     0.00       3.60 -999.99    3.60    0.00000     0.00  LINEAR    9.70348E+00   -58.41    0.00000E+00     0.00
   56.00     0.00       4.02 -999.99    4.02    0.00000     0.00  LINEAR    1.01857E+01   -59.29    0.00000E+00     0.00
   58.00     0.00       4.40 -999.99    4.40    0.00000     0.00  LINEAR    1.06466E+01   -60.11    0.00000E+00     0.00
   60.00     0.00       4.75 -999.99    4.75    0.00000     0.00  LINEAR    1.10842E+01   -60.87    0.00000E+00     0.00
   62.00     0.00       5.07 -999.99    5.07    0.00000     0.00  LINEAR    1.14969E+01   -61.59    0.00000E+00     0.00
   64.00     0.00       5.36 -999.99    5.36    0.00000     0.00  LINEAR    1.18834E+01   -62.26    0.00000E+00     0.00
   66.00     0.00       5.62 -999.99    5.62    0.00000     0.00  LINEAR    1.22426E+01   -62.87    0.00000E+00     0.00
   68.00     0.00       5.85 -999.99    5.85    0.00000     0.00  LINEAR    1.25738E+01   -63.44    0.00000E+00     0.00
   70.00     0.00       6.05 -999.99    6.05    0.00000     0.00  LINEAR    1.28764E+01   -63.96    0.00000E+00     0.00
   72.00     0.00       6.24 -999.99    6.24    0.00000     0.00  LINEAR    1.31501E+01   -64.44    0.00000E+00     0.00
   74.00     0.00       6.40 -999.99    6.40    0.00000     0.00  LINEAR    1.33947E+01   -64.86    0.00000E+00     0.00
   76.00     0.00       6.54 -999.99    6.54    0.00000     0.00  LINEAR    1.36101E+01   -65.24    0.00000E+00     0.00
   78.00     0.00       6.65 -999.99    6.65    0.00000     0.00  LINEAR    1.37964E+01   -65.56    0.00000E+00     0.00
   80.00     0.00       6.75 -999.99    6.75    0.00000     0.00  LINEAR    1.39536E+01   -65.84    0.00000E+00     0.00
   82.00     0.00       6.83 -999.99    6.83    0.00000     0.00  LINEAR    1.40819E+01   -66.07    0.00000E+00     0.00
   84.00     0.00       6.89 -999.99    6.89    0.00000     0.00  LINEAR    1.41816E+01   -66.24    0.00000E+00     0.00
   86.00     0.00       6.94 -999.99    6.94    0.00000     0.00  LINEAR    1.42526E+01   -66.37    0.00000E+00     0.00
   88.00     0.00       6.96 -999.99    6.96    0.00000     0.00  LINEAR    1.42952E+01   -66.45    0.00000E+00     0.00
   90.00     0.00       6.97 -999.99    6.97    0.00000     0.00  LINEAR    1.43094E+01   -66.47    0.00000E+00     0.00
   92.00     0.00       6.96 -999.99    6.96    0.00000     0.00  LINEAR    1.42952E+01   -66.45    0.00000E+00     0.00
   94.00     0.00       6.94 -999.99    6.94    0.00000     0.00  LINEAR    1.42526E+01   -66.37    0.00000E+00     0.00
   96.00     0.00       6.89 -999.99    6.89    0.00000     0.00  LINEAR    1.41816E+01   -66.24    0.00000E+00     0.00
   98.00     0.00       6.83 -999.99    6.83    0.00000     0.00  LINEAR    1.40819E+01   -66.07    0.00000E+00     0.00
  100.00     0.00       6.75 -999.99    6.75    0.00000     0.00  LINEAR    1.39536E+01   -65.84    0.00000E+00     0.00
  102.00     0.00       6.65 -999.99    6.65    0.00000     0.00  LINEAR    1.37964E+01   -65.56    0.00000E+00     0.00
  104.00     0.00       6.54 -999.99    6.54    0.00000     0.00  LINEAR    1.36101E+01   -65.24    0.00000E+00     0.00
  106.00     0.00       6.40 -999.99    6.40    0.00000     0.00  LINEAR    1.33947E+01   -64.86    0.00000E+00     0.00
  108.00     0.00       6.24 -999.99    6.24    0.00000     0.00  LINEAR    1.31501E+01   -64.44    0.00000E+00     0.00
  110.00     0.00       6.05 -999.99    6.05    0.00000     0.00  LINEAR    1.28764E+01   -63.96    0.00000E+00     0.00
  112.00     0.00       5.85 -999.99    5.85    0.00000     0.00  LINEAR    1.25738E+01   -63.44    0.00000E+00     0.00
  114.00     0.00       5.62 -999.99    5.62    0.00000     0.00  LINEAR    1.22426E+01   -62.87    0.00000E+00     0.00
  116.00     0.00       5.36 -999.99    5.36    0.00000     0.00  LINEAR    1.18834E+01   -62.26    0.00000E+00     0.00
  118.00     0.00       5.07 -999.99    5.07    0.00000     0.00  LINEAR    1.14969E+01   -61.59    0.00000E+00     0.00
  120.00     0.00       4.75 -999.99    4.75    0.00000     0.00  LINEAR    1.10842E+01   -60.87    0.00000E+00     0.00
  122.00     0.00       4.40 -999.99    4.40    0.00000     0.00  LINEAR    1.06466E+01   -60.11    0.00000E+00     0.00
  124.00     0.00       4.02 -999.99    4.02    0.00000     0.00  LINEAR    1.01857E+01   -59.29    0.00000E+00     0.00
  126.00     0.00       3.60 -999.99    3.60    0.00000     0.00  LINEAR    9.70348E+00   -58.41    0.00000E+00     0.00
  128.00     0.00       3.14 -999.99    3.14    0.00000     0.00  LINEAR    9.20211E+00   -57.47    0.00000E+00     0.00
  130.00     0.00       2.63 -999.99    2.63    0.00000     0.00  LINEAR    8.68420E+00   -56.48    0.00000E+00     0.00
