1



                                 *********************************************

                                    NUMERICAL ELECTROMAGNETICS CODE (NEC-2D)

                                 *********************************************




                                     - - - - COMMENTS - - - -


                          EXAMPLE                                                                    
                          UDA-YAGI ANTENNA                                                           
                          FIle Generated by MatLab                                                   




                                 - - - STRUCTURE SPECIFICATION - - -

                                     COORDINATES MUST BE INPUT IN
                                     METERS OR BE SCALED TO METERS
                                     BEFORE STRUCTURE INPUT IS ENDED


  WIRE                                                                               NO. OF    FIRST  LAST     TAG
  NO.        X1         Y1         Z1          X2         Y2         Z2      RADIUS   SEG.     SEG.   SEG.     NO.
     1   -0.15200    0.00000   -0.21640    -0.15200    0.00000    0.21640    0.00430      7        1     7       1
     2    0.00000    0.00000   -0.19770     0.00000    0.00000    0.19770    0.00430      7        8    14       2
     3    0.37310    0.00000   -0.20150     0.37310    0.00000    0.20150    0.00430      7       15    21       3

   TOTAL SEGMENTS USED=   21     NO. SEG. IN A SYMMETRIC CELL=   21     SYMMETRY FLAG=  0


         - MULTIPLE WIRE JUNCTIONS -
 JUNCTION    SEGMENTS  (- FOR END 1, + FOR END 2)
  NONE




                                 - - - - SEGMENTATION DATA - - - -

                                        COORDINATES IN METERS

                         I+ AND I- INDICATE THE SEGMENTS BEFORE AND AFTER I


  SEG.   COORDINATES OF SEG. CENTER     SEG.     ORIENTATION ANGLES    WIRE    CONNECTION DATA   TAG
  NO.       X         Y         Z       LENGTH     ALPHA     BETA      RADIUS    I-   I    I+    NO.
     1  -0.15200   0.00000  -0.18549   0.06183   90.00000   0.00000   0.00430     0    1    2      1
     2  -0.15200   0.00000  -0.12366   0.06183   90.00000   0.00000   0.00430     1    2    3      1
     3  -0.15200   0.00000  -0.06183   0.06183   90.00000   0.00000   0.00430     2    3    4      1
     4  -0.15200   0.00000   0.00000   0.06183   90.00000   0.00000   0.00430     3    4    5      1
     5  -0.15200   0.00000   0.06183   0.06183   90.00000   0.00000   0.00430     4    5    6      1
     6  -0.15200   0.00000   0.12366   0.06183   90.00000   0.00000   0.00430     5    6    7      1
     7  -0.15200   0.00000   0.18549   0.06183   90.00000   0.00000   0.00430     6    7    0      1
     8   0.00000   0.00000  -0.16946   0.05649   90.00000   0.00000   0.00430     0    8    9      2
     9   0.00000   0.00000  -0.11297   0.05649   90.00000   0.00000   0.00430     8    9   10      2
    10   0.00000   0.00000  -0.05649   0.05649   90.00000   0.00000   0.00430     9   10   11      2
    11   0.00000   0.00000   0.00000   0.05649   90.00000   0.00000   0.00430    10   11   12      2
    12   0.00000   0.00000   0.05649   0.05649   90.00000   0.00000   0.00430    11   12   13      2
    13   0.00000   0.00000   0.11297   0.05649   90.00000   0.00000   0.00430    12   13   14      2
    14   0.00000   0.00000   0.16946   0.05649   90.00000   0.00000   0.00430    13   14    0      2
    15   0.37310   0.00000  -0.17271   0.05757   90.00000   0.00000   0.00430     0   15   16      3
    16   0.37310   0.00000  -0.11514   0.05757   90.00000   0.00000   0.00430    15   16   17      3
    17   0.37310   0.00000  -0.05757   0.05757   90.00000   0.00000   0.00430    16   17   18      3
    18   0.37310   0.00000   0.00000   0.05757   90.00000   0.00000   0.00430    17   18   19      3
    19   0.37310   0.00000   0.05757   0.05757   90.00000   0.00000   0.00430    18   19   20      3
    20   0.37310   0.00000   0.11514   0.05757   90.00000   0.00000   0.00430    19   20   21      3
    21   0.37310   0.00000   0.17271   0.05757   90.00000   0.00000   0.00430    20   21    0      3






 ***** DATA CARD NO.  1   EX   0     2     4     0  1.00000E+00  0.00000E+00  0.00000E+00  0.00000E+00  0.00000E+00  0.00000E+00
 ***** DATA CARD NO.  2   FR   0     1     0     0  2.99800E+02  0.00000E+00  0.00000E+00  0.00000E+00  0.00000E+00  0.00000E+00
 ***** DATA CARD NO.  3   RP   0     1     1  1000  9.00000E+01  0.00000E+00  0.00000E+00  0.00000E+00  0.00000E+00  0.00000E+00




                                 - - - - - - FREQUENCY - - - - - -

                                    FREQUENCY= 2.9980E+02 MHZ
                                    WAVELENGTH= 1.0000E+00 METERS




                    APPROXIMATE INTEGRATION EMPLOYED FOR SEGMENTS MORE THAN   1.000 WAVELENGTHS APART



                               - - - STRUCTURE IMPEDANCE LOADING - - -

                                   THIS STRUCTURE IS NOT LOADED



                                  - - - ANTENNA ENVIRONMENT - - -

                                            FREE SPACE



                                - - - MATRIX TIMING - - -

                        FILL=    0.000 SEC.,  FACTOR=    0.000 SEC.



                                          - - - ANTENNA INPUT PARAMETERS - - -

   TAG   SEG.    VOLTAGE (VOLTS)         CURRENT (AMPS)         IMPEDANCE (OHMS)        ADMITTANCE (MHOS)      POWER
   NO.   NO.    REAL        IMAG.       REAL        IMAG.       REAL        IMAG.       REAL        IMAG.     (WATTS)
     2    11 1.00000E+00 0.00000E+00 2.04655E-03 1.11505E-02 1.59239E+01-8.67597E+01 2.04655E-03 1.11505E-02 1.02328E-03



                             - - - CURRENTS AND LOCATION - - -

                                 DISTANCES IN WAVELENGTHS


  SEG.  TAG    COORD. OF SEG. CENTER     SEG.            - - - CURRENT (AMPS) - - -
  NO.   NO.     X        Y        Z      LENGTH     REAL        IMAG.       MAG.        PHASE
     1    1  -0.1520   0.0000  -0.1855  0.06183   4.4223E-04 -2.0780E-03  2.1246E-03  -77.986
     2    1  -0.1520   0.0000  -0.1237  0.06183   9.8936E-04 -4.8126E-03  4.9132E-03  -78.383
     3    1  -0.1520   0.0000  -0.0618  0.06183   1.3124E-03 -6.5356E-03  6.6660E-03  -78.645
     4    1  -0.1520   0.0000   0.0000  0.06183   1.4224E-03 -7.1408E-03  7.2811E-03  -78.735
     5    1  -0.1520   0.0000   0.0618  0.06183   1.3124E-03 -6.5356E-03  6.6660E-03  -78.645
     6    1  -0.1520   0.0000   0.1237  0.06183   9.8936E-04 -4.8126E-03  4.9132E-03  -78.383
     7    1  -0.1520   0.0000   0.1855  0.06183   4.4223E-04 -2.0780E-03  2.1246E-03  -77.986
     8    2   0.0000   0.0000  -0.1695  0.05649   6.4528E-04  2.8914E-03  2.9625E-03   77.419
     9    2   0.0000   0.0000  -0.1130  0.05649   1.4281E-03  6.7602E-03  6.9094E-03   78.072
    10    2   0.0000   0.0000  -0.0565  0.05649   1.8894E-03  9.5690E-03  9.7537E-03   78.831
    11    2   0.0000   0.0000   0.0000  0.05649   2.0466E-03  1.1150E-02  1.1337E-02   79.600
    12    2   0.0000   0.0000   0.0565  0.05649   1.8894E-03  9.5690E-03  9.7537E-03   78.831
    13    2   0.0000   0.0000   0.1130  0.05649   1.4281E-03  6.7602E-03  6.9094E-03   78.072
    14    2   0.0000   0.0000   0.1695  0.05649   6.4528E-04  2.8914E-03  2.9625E-03   77.419
    15    3   0.3731   0.0000  -0.1727  0.05757  -7.3203E-06 -5.4462E-04  5.4467E-04  -90.770
    16    3   0.3731   0.0000  -0.1151  0.05757  -1.7219E-05 -1.2218E-03  1.2219E-03  -90.807
    17    3   0.3731   0.0000  -0.0576  0.05757  -2.3681E-05 -1.6291E-03  1.6293E-03  -90.833
    18    3   0.3731   0.0000   0.0000  0.05757  -2.5989E-05 -1.7692E-03  1.7693E-03  -90.842
    19    3   0.3731   0.0000   0.0576  0.05757  -2.3681E-05 -1.6291E-03  1.6293E-03  -90.833
    20    3   0.3731   0.0000   0.1151  0.05757  -1.7219E-05 -1.2218E-03  1.2219E-03  -90.807
    21    3   0.3731   0.0000   0.1727  0.05757  -7.3203E-06 -5.4462E-04  5.4467E-04  -90.770



                                        - - - POWER BUDGET - - -

                                           INPUT POWER   = 1.0233E-03 WATTS
                                           RADIATED POWER= 1.0233E-03 WATTS
                                           STRUCTURE LOSS= 0.0000E+00 WATTS
                                           NETWORK LOSS  = 0.0000E+00 WATTS
                                           EFFICIENCY    = 100.00 PERCENT



                                                - - - RADIATION PATTERNS - - -

  - - ANGLES - -           - POWER GAINS -       - - - POLARIZATION - - -    - - - E(THETA) - - -    - - - E(PHI) - - -
  THETA     PHI        VERT.   HOR.    TOTAL      AXIAL     TILT   SENSE     MAGNITUDE    PHASE      MAGNITUDE    PHASE 
 DEGREES  DEGREES       DB      DB      DB        RATIO     DEG.              VOLTS/M    DEGREES      VOLTS/M    DEGREES
   90.00     0.00       2.00 -999.99    2.00    0.00000     0.00  LINEAR    3.11688E-01  -160.84    0.00000E+00     0.00






 ***** DATA CARD NO.  4   EN   0     0     0     0  0.00000E+00  0.00000E+00  0.00000E+00  0.00000E+00  0.00000E+00  0.00000E+00

 RUN TIME =     0.000
