1



                                 *********************************************

                                    NUMERICAL ELECTROMAGNETICS CODE (NEC-2D)

                                 *********************************************




                                     - - - - COMMENTS - - - -


                          Homework #1                                                                
                          UDA-YAGI array of square loops                                             
                          3 ELEMENT DESIGN                                                           




                                 - - - STRUCTURE SPECIFICATION - - -

                                     COORDINATES MUST BE INPUT IN
                                     METERS OR BE SCALED TO METERS
                                     BEFORE STRUCTURE INPUT IS ENDED


  WIRE                                                                               NO. OF    FIRST  LAST     TAG
  NO.        X1         Y1         Z1          X2         Y2         Z2      RADIUS   SEG.     SEG.   SEG.     NO.
     1   -0.15000   -0.13100    0.13100    -0.15000    0.13100    0.13100    0.00500      5        1     5       1
     2   -0.15000   -0.13100   -0.13100    -0.15000    0.13100   -0.13100    0.00500      5        6    10       2
     3   -0.15000   -0.13100   -0.13100    -0.15000   -0.13100    0.13100    0.00500      5       11    15       3
     4   -0.15000    0.13100   -0.13100    -0.15000    0.13100    0.13100    0.00500      5       16    20       4
     5    0.00000   -0.12500    0.12500     0.00000    0.12500    0.12500    0.00500      5       21    25       5
     6    0.00000   -0.12500   -0.12500     0.00000    0.12500   -0.12500    0.00500      5       26    30       6
     7    0.00000   -0.12500   -0.12500     0.00000   -0.12500    0.12500    0.00500      5       31    35       7
     8    0.00000    0.12500   -0.12500     0.00000    0.12500    0.12500    0.00500      5       36    40       8
     9    0.15000   -0.11800    0.11800     0.15000    0.11800    0.11800    0.00500      5       41    45       9
    10    0.15000   -0.11800   -0.11800     0.15000    0.11800   -0.11800    0.00500      5       46    50      10
    11    0.15000   -0.11800   -0.11800     0.15000   -0.11800    0.11800    0.00500      5       51    55      11
    12    0.15000    0.11800   -0.11800     0.15000    0.11800    0.11800    0.00500      5       56    60      12

   TOTAL SEGMENTS USED=   60     NO. SEG. IN A SYMMETRIC CELL=   60     SYMMETRY FLAG=  0


         - MULTIPLE WIRE JUNCTIONS -
 JUNCTION    SEGMENTS  (- FOR END 1, + FOR END 2)
  NONE




                                 - - - - SEGMENTATION DATA - - - -

                                        COORDINATES IN METERS

                         I+ AND I- INDICATE THE SEGMENTS BEFORE AND AFTER I


  SEG.   COORDINATES OF SEG. CENTER     SEG.     ORIENTATION ANGLES    WIRE    CONNECTION DATA   TAG
  NO.       X         Y         Z       LENGTH     ALPHA     BETA      RADIUS    I-   I    I+    NO.
     1  -0.15000  -0.10480   0.13100   0.05240    0.00000  90.00000   0.00500    15    1    2      1
     2  -0.15000  -0.05240   0.13100   0.05240    0.00000  90.00000   0.00500     1    2    3      1
     3  -0.15000   0.00000   0.13100   0.05240    0.00000  90.00000   0.00500     2    3    4      1
     4  -0.15000   0.05240   0.13100   0.05240    0.00000  90.00000   0.00500     3    4    5      1
     5  -0.15000   0.10480   0.13100   0.05240    0.00000  90.00000   0.00500     4    5  -20      1
     6  -0.15000  -0.10480  -0.13100   0.05240    0.00000  90.00000   0.00500   -11    6    7      2
     7  -0.15000  -0.05240  -0.13100   0.05240    0.00000  90.00000   0.00500     6    7    8      2
     8  -0.15000   0.00000  -0.13100   0.05240    0.00000  90.00000   0.00500     7    8    9      2
     9  -0.15000   0.05240  -0.13100   0.05240    0.00000  90.00000   0.00500     8    9   10      2
    10  -0.15000   0.10480  -0.13100   0.05240    0.00000  90.00000   0.00500     9   10   16      2
    11  -0.15000  -0.13100  -0.10480   0.05240   90.00000   0.00000   0.00500    -6   11   12      3
    12  -0.15000  -0.13100  -0.05240   0.05240   90.00000   0.00000   0.00500    11   12   13      3
    13  -0.15000  -0.13100   0.00000   0.05240   90.00000   0.00000   0.00500    12   13   14      3
    14  -0.15000  -0.13100   0.05240   0.05240   90.00000   0.00000   0.00500    13   14   15      3
    15  -0.15000  -0.13100   0.10480   0.05240   90.00000   0.00000   0.00500    14   15    1      3
    16  -0.15000   0.13100  -0.10480   0.05240   90.00000   0.00000   0.00500    10   16   17      4
    17  -0.15000   0.13100  -0.05240   0.05240   90.00000   0.00000   0.00500    16   17   18      4
    18  -0.15000   0.13100   0.00000   0.05240   90.00000   0.00000   0.00500    17   18   19      4
    19  -0.15000   0.13100   0.05240   0.05240   90.00000   0.00000   0.00500    18   19   20      4
    20  -0.15000   0.13100   0.10480   0.05240   90.00000   0.00000   0.00500    19   20   -5      4
    21   0.00000  -0.10000   0.12500   0.05000    0.00000  90.00000   0.00500    35   21   22      5
    22   0.00000  -0.05000   0.12500   0.05000    0.00000  90.00000   0.00500    21   22   23      5
    23   0.00000   0.00000   0.12500   0.05000    0.00000  90.00000   0.00500    22   23   24      5
    24   0.00000   0.05000   0.12500   0.05000    0.00000  90.00000   0.00500    23   24   25      5
    25   0.00000   0.10000   0.12500   0.05000    0.00000  90.00000   0.00500    24   25  -40      5
    26   0.00000  -0.10000  -0.12500   0.05000    0.00000  90.00000   0.00500   -31   26   27      6
    27   0.00000  -0.05000  -0.12500   0.05000    0.00000  90.00000   0.00500    26   27   28      6
    28   0.00000   0.00000  -0.12500   0.05000    0.00000  90.00000   0.00500    27   28   29      6
    29   0.00000   0.05000  -0.12500   0.05000    0.00000  90.00000   0.00500    28   29   30      6
    30   0.00000   0.10000  -0.12500   0.05000    0.00000  90.00000   0.00500    29   30   36      6
    31   0.00000  -0.12500  -0.10000   0.05000   90.00000   0.00000   0.00500   -26   31   32      7
    32   0.00000  -0.12500  -0.05000   0.05000   90.00000   0.00000   0.00500    31   32   33      7
    33   0.00000  -0.12500   0.00000   0.05000   90.00000   0.00000   0.00500    32   33   34      7
    34   0.00000  -0.12500   0.05000   0.05000   90.00000   0.00000   0.00500    33   34   35      7
    35   0.00000  -0.12500   0.10000   0.05000   90.00000   0.00000   0.00500    34   35   21      7
    36   0.00000   0.12500  -0.10000   0.05000   90.00000   0.00000   0.00500    30   36   37      8
    37   0.00000   0.12500  -0.05000   0.05000   90.00000   0.00000   0.00500    36   37   38      8
    38   0.00000   0.12500   0.00000   0.05000   90.00000   0.00000   0.00500    37   38   39      8
    39   0.00000   0.12500   0.05000   0.05000   90.00000   0.00000   0.00500    38   39   40      8
    40   0.00000   0.12500   0.10000   0.05000   90.00000   0.00000   0.00500    39   40  -25      8
    41   0.15000  -0.09440   0.11800   0.04720    0.00000  90.00000   0.00500    55   41   42      9
    42   0.15000  -0.04720   0.11800   0.04720    0.00000  90.00000   0.00500    41   42   43      9
    43   0.15000   0.00000   0.11800   0.04720    0.00000  90.00000   0.00500    42   43   44      9
    44   0.15000   0.04720   0.11800   0.04720    0.00000  90.00000   0.00500    43   44   45      9
    45   0.15000   0.09440   0.11800   0.04720    0.00000  90.00000   0.00500    44   45  -60      9
    46   0.15000  -0.09440  -0.11800   0.04720    0.00000  90.00000   0.00500   -51   46   47     10
    47   0.15000  -0.04720  -0.11800   0.04720    0.00000  90.00000   0.00500    46   47   48     10
    48   0.15000   0.00000  -0.11800   0.04720    0.00000  90.00000   0.00500    47   48   49     10
    49   0.15000   0.04720  -0.11800   0.04720    0.00000  90.00000   0.00500    48   49   50     10
    50   0.15000   0.09440  -0.11800   0.04720    0.00000  90.00000   0.00500    49   50   56     10
    51   0.15000  -0.11800  -0.09440   0.04720   90.00000   0.00000   0.00500   -46   51   52     11
    52   0.15000  -0.11800  -0.04720   0.04720   90.00000   0.00000   0.00500    51   52   53     11
    53   0.15000  -0.11800   0.00000   0.04720   90.00000   0.00000   0.00500    52   53   54     11
    54   0.15000  -0.11800   0.04720   0.04720   90.00000   0.00000   0.00500    53   54   55     11
    55   0.15000  -0.11800   0.09440   0.04720   90.00000   0.00000   0.00500    54   55   41     11
    56   0.15000   0.11800  -0.09440   0.04720   90.00000   0.00000   0.00500    50   56   57     12
    57   0.15000   0.11800  -0.04720   0.04720   90.00000   0.00000   0.00500    56   57   58     12
    58   0.15000   0.11800   0.00000   0.04720   90.00000   0.00000   0.00500    57   58   59     12
    59   0.15000   0.11800   0.04720   0.04720   90.00000   0.00000   0.00500    58   59   60     12
    60   0.15000   0.11800   0.09440   0.04720   90.00000   0.00000   0.00500    59   60  -45     12






 ***** DATA CARD NO.  1   EX   0     5     3     0  1.00000E+00  0.00000E+00  0.00000E+00  0.00000E+00  0.00000E+00  0.00000E+00
 ***** DATA CARD NO.  2   FR   0   121     0     0  2.40000E+02  1.00000E+00  0.00000E+00  0.00000E+00  0.00000E+00  0.00000E+00
 ***** DATA CARD NO.  3   RP   0     1     1  1000  9.00000E+01  0.00000E+00  2.00000E+00  4.00000E+00  0.00000E+00  0.00000E+00




                                 - - - - - - FREQUENCY - - - - - -

                                    FREQUENCY= 2.4000E+02 MHZ
                                    WAVELENGTH= 1.2492E+00 METERS




                    APPROXIMATE INTEGRATION EMPLOYED FOR SEGMENTS MORE THAN   1.000 WAVELENGTHS APART



                               - - - STRUCTURE IMPEDANCE LOADING - - -

                                   THIS STRUCTURE IS NOT LOADED



                                  - - - ANTENNA ENVIRONMENT - - -

                                            FREE SPACE



                                - - - MATRIX TIMING - - -

                        FILL=    0.050 SEC.,  FACTOR=    0.000 SEC.



                                          - - - ANTENNA INPUT PARAMETERS - - -

   TAG   SEG.    VOLTAGE (VOLTS)         CURRENT (AMPS)         IMPEDANCE (OHMS)        ADMITTANCE (MHOS)      POWER
   NO.   NO.    REAL        IMAG.       REAL        IMAG.       REAL        IMAG.       REAL        IMAG.     (WATTS)
     5    23 1.00000E+00 0.00000E+00 2.88149E-04 2.47860E-03 4.62777E+01-3.98073E+02 2.88149E-04 2.47860E-03 1.44074E-04



                             - - - CURRENTS AND LOCATION - - -

                                 DISTANCES IN WAVELENGTHS


  SEG.  TAG    COORD. OF SEG. CENTER     SEG.            - - - CURRENT (AMPS) - - -
  NO.   NO.     X        Y        Z      LENGTH     REAL        IMAG.       MAG.        PHASE
     1    1  -0.1201  -0.0839   0.1049  0.04195   2.3431E-04 -3.7049E-04  4.3837E-04  -57.689
     2    1  -0.1201  -0.0419   0.1049  0.04195   2.7402E-04 -4.7684E-04  5.4997E-04  -60.116
     3    1  -0.1201   0.0000   0.1049  0.04195   2.8714E-04 -5.1696E-04  5.9135E-04  -60.951
     4    1  -0.1201   0.0419   0.1049  0.04195   2.7402E-04 -4.7684E-04  5.4997E-04  -60.116
     5    1  -0.1201   0.0839   0.1049  0.04195   2.3431E-04 -3.7049E-04  4.3837E-04  -57.689
     6    2  -0.1201  -0.0839  -0.1049  0.04195   1.7785E-04 -6.1958E-04  6.4460E-04  -73.984
     7    2  -0.1201  -0.0419  -0.1049  0.04195   2.1570E-04 -7.0451E-04  7.3679E-04  -72.977
     8    2  -0.1201   0.0000  -0.1049  0.04195   2.2815E-04 -7.3520E-04  7.6979E-04  -72.760
     9    2  -0.1201   0.0419  -0.1049  0.04195   2.1570E-04 -7.0451E-04  7.3679E-04  -72.977
    10    2  -0.1201   0.0839  -0.1049  0.04195   1.7785E-04 -6.1958E-04  6.4460E-04  -73.984
    11    3  -0.1201  -0.1049  -0.0839  0.04195  -1.1513E-04  4.9653E-04  5.0971E-04  103.054
    12    3  -0.1201  -0.1049  -0.0419  0.04195  -4.5736E-05  3.3461E-04  3.3772E-04   97.783
    13    3  -0.1201  -0.1049   0.0000  0.04195   2.6395E-05  1.4769E-04  1.5003E-04   79.867
    14    3  -0.1201  -0.1049   0.0419  0.04195   9.8822E-05 -4.6361E-05  1.0916E-04  -25.133
    15    3  -0.1201  -0.1049   0.0839  0.04195   1.6928E-04 -2.2657E-04  2.8283E-04  -53.234
    16    4  -0.1201   0.1049  -0.0839  0.04195   1.1513E-04 -4.9653E-04  5.0971E-04  -76.946
    17    4  -0.1201   0.1049  -0.0419  0.04195   4.5736E-05 -3.3461E-04  3.3772E-04  -82.217
    18    4  -0.1201   0.1049   0.0000  0.04195  -2.6395E-05 -1.4769E-04  1.5003E-04 -100.133
    19    4  -0.1201   0.1049   0.0419  0.04195  -9.8822E-05  4.6361E-05  1.0916E-04  154.867
    20    4  -0.1201   0.1049   0.0839  0.04195  -1.6928E-04  2.2657E-04  2.8283E-04  126.766
    21    5   0.0000  -0.0801   0.1001  0.04003   2.3512E-04  8.9289E-04  9.2332E-04   75.248
    22    5   0.0000  -0.0400   0.1001  0.04003   2.7510E-04  1.7043E-03  1.7264E-03   80.831
    23    5   0.0000   0.0000   0.1001  0.04003   2.8815E-04  2.4786E-03  2.4953E-03   83.369
    24    5   0.0000   0.0400   0.1001  0.04003   2.7510E-04  1.7043E-03  1.7264E-03   80.831
    25    5   0.0000   0.0801   0.1001  0.04003   2.3512E-04  8.9289E-04  9.2332E-04   75.248
    26    6   0.0000  -0.0801  -0.1001  0.04003   1.8131E-04  2.9090E-03  2.9146E-03   86.433
    27    6   0.0000  -0.0400  -0.1001  0.04003   2.1958E-04  3.1514E-03  3.1591E-03   86.014
    28    6   0.0000   0.0000  -0.1001  0.04003   2.3203E-04  3.2351E-03  3.2434E-03   85.898
    29    6   0.0000   0.0400  -0.1001  0.04003   2.1958E-04  3.1514E-03  3.1591E-03   86.014
    30    6   0.0000   0.0801  -0.1001  0.04003   1.8131E-04  2.9090E-03  2.9146E-03   86.433
    31    7   0.0000  -0.1001  -0.0801  0.04003  -1.1680E-04 -2.5263E-03  2.5290E-03  -92.647
    32    7   0.0000  -0.1001  -0.0400  0.04003  -4.6763E-05 -1.9975E-03  1.9980E-03  -91.341
    33    7   0.0000  -0.1001   0.0000  0.04003   2.5261E-05 -1.3456E-03  1.3459E-03  -88.925
    34    7   0.0000  -0.1001   0.0400  0.04003   9.7531E-05 -6.1247E-04  6.2019E-04  -80.952
    35    7   0.0000  -0.1001   0.0801  0.04003   1.6850E-04  1.4842E-04  2.2454E-04   41.376
    36    8   0.0000   0.1001  -0.0801  0.04003   1.1680E-04  2.5263E-03  2.5290E-03   87.353
    37    8   0.0000   0.1001  -0.0400  0.04003   4.6763E-05  1.9975E-03  1.9980E-03   88.659
    38    8   0.0000   0.1001   0.0000  0.04003  -2.5261E-05  1.3456E-03  1.3459E-03   91.075
    39    8   0.0000   0.1001   0.0400  0.04003  -9.7531E-05  6.1247E-04  6.2019E-04   99.048
    40    8   0.0000   0.1001   0.0801  0.04003  -1.6850E-04 -1.4842E-04  2.2454E-04 -138.624
    41    9   0.1201  -0.0756   0.0945  0.03779   1.7335E-04 -2.0355E-04  2.6736E-04  -49.582
    42    9   0.1201  -0.0378   0.0945  0.03779   2.0186E-04 -2.7722E-04  3.4293E-04  -53.939
    43    9   0.1201   0.0000   0.0945  0.03779   2.1118E-04 -3.0487E-04  3.7087E-04  -55.290
    44    9   0.1201   0.0378   0.0945  0.03779   2.0186E-04 -2.7722E-04  3.4293E-04  -53.939
    45    9   0.1201   0.0756   0.0945  0.03779   1.7335E-04 -2.0355E-04  2.6736E-04  -49.582
    46   10   0.1201  -0.0756  -0.0945  0.03779   1.2040E-04 -4.5311E-04  4.6884E-04  -75.119
    47   10   0.1201  -0.0378  -0.0945  0.03779   1.4753E-04 -5.0916E-04  5.3010E-04  -73.841
    48   10   0.1201   0.0000  -0.0945  0.03779   1.5635E-04 -5.2942E-04  5.5202E-04  -73.546
    49   10   0.1201   0.0378  -0.0945  0.03779   1.4753E-04 -5.0916E-04  5.3010E-04  -73.841
    50   10   0.1201   0.0756  -0.0945  0.03779   1.2040E-04 -4.5311E-04  4.6884E-04  -75.119
    51   11   0.1201  -0.0945  -0.0756  0.03779  -7.4634E-05  3.7234E-04  3.7975E-04  101.334
    52   11   0.1201  -0.0945  -0.0378  0.03779  -2.5326E-05  2.6690E-04  2.6810E-04   95.420
    53   11   0.1201  -0.0945   0.0000  0.03779   2.5145E-05  1.4516E-04  1.4732E-04   80.173
    54   11   0.1201  -0.0945   0.0378  0.03779   7.5818E-05  1.7433E-05  7.7797E-05   12.949
    55   11   0.1201  -0.0945   0.0756  0.03779   1.2588E-04 -1.0383E-04  1.6317E-04  -39.516
    56   12   0.1201   0.0945  -0.0756  0.03779   7.4634E-05 -3.7234E-04  3.7975E-04  -78.666
    57   12   0.1201   0.0945  -0.0378  0.03779   2.5326E-05 -2.6690E-04  2.6810E-04  -84.580
    58   12   0.1201   0.0945   0.0000  0.03779  -2.5145E-05 -1.4516E-04  1.4732E-04  -99.827
    59   12   0.1201   0.0945   0.0378  0.03779  -7.5818E-05 -1.7433E-05  7.7797E-05 -167.051
    60   12   0.1201   0.0945   0.0756  0.03779  -1.2588E-04  1.0383E-04  1.6317E-04  140.484



                                        - - - POWER BUDGET - - -

                                           INPUT POWER   = 1.4407E-04 WATTS
                                           RADIATED POWER= 1.4407E-04 WATTS
                                           STRUCTURE LOSS= 0.0000E+00 WATTS
                                           NETWORK LOSS  = 0.0000E+00 WATTS
                                           EFFICIENCY    = 100.00 PERCENT



                                                - - - RADIATION PATTERNS - - -

  - - ANGLES - -           - POWER GAINS -       - - - POLARIZATION - - -    - - - E(THETA) - - -    - - - E(PHI) - - -
  THETA     PHI        VERT.   HOR.    TOTAL      AXIAL     TILT   SENSE     MAGNITUDE    PHASE      MAGNITUDE    PHASE 
 DEGREES  DEGREES       DB      DB      DB        RATIO     DEG.              VOLTS/M    DEGREES      VOLTS/M    DEGREES
   90.00     0.00    -148.96    2.24    2.24    0.00000   -90.00  LINEAR    3.31384E-09   172.36    1.20299E-01   -13.12




                                 - - - - - - FREQUENCY - - - - - -

                                    FREQUENCY= 2.4100E+02 MHZ
                                    WAVELENGTH= 1.2440E+00 METERS




                    APPROXIMATE INTEGRATION EMPLOYED FOR SEGMENTS MORE THAN   1.000 WAVELENGTHS APART



                               - - - STRUCTURE IMPEDANCE LOADING - - -

                                   THIS STRUCTURE IS NOT LOADED



                                  - - - ANTENNA ENVIRONMENT - - -

                                            FREE SPACE



                                - - - MATRIX TIMING - - -

                        FILL=    0.000 SEC.,  FACTOR=    0.000 SEC.



                                          - - - ANTENNA INPUT PARAMETERS - - -

   TAG   SEG.    VOLTAGE (VOLTS)         CURRENT (AMPS)         IMPEDANCE (OHMS)        ADMITTANCE (MHOS)      POWER
   NO.   NO.    REAL        IMAG.       REAL        IMAG.       REAL        IMAG.       REAL        IMAG.     (WATTS)
     5    23 1.00000E+00 0.00000E+00 2.94708E-04 2.52130E-03 4.57352E+01-3.91276E+02 2.94708E-04 2.52130E-03 1.47354E-04



                             - - - CURRENTS AND LOCATION - - -

                                 DISTANCES IN WAVELENGTHS


  SEG.  TAG    COORD. OF SEG. CENTER     SEG.            - - - CURRENT (AMPS) - - -
  NO.   NO.     X        Y        Z      LENGTH     REAL        IMAG.       MAG.        PHASE
     1    1  -0.1206  -0.0842   0.1053  0.04212   2.3858E-04 -3.8520E-04  4.5310E-04  -58.228
     2    1  -0.1206  -0.0421   0.1053  0.04212   2.7907E-04 -4.9424E-04  5.6758E-04  -60.549
     3    1  -0.1206   0.0000   0.1053  0.04212   2.9244E-04 -5.3531E-04  6.0999E-04  -61.352
     4    1  -0.1206   0.0421   0.1053  0.04212   2.7907E-04 -4.9424E-04  5.6758E-04  -60.549
     5    1  -0.1206   0.0842   0.1053  0.04212   2.3858E-04 -3.8520E-04  4.5310E-04  -58.228
     6    2  -0.1206  -0.0842  -0.1053  0.04212   1.8178E-04 -6.3342E-04  6.5898E-04  -73.987
