1



                                ***********************************************
                                *                                             *
                                *  NUMERICAL ELECTROMAGNETICS CODE (NEC-4.1)  *
                                *                                             *
                                ***********************************************




                      **********************************************************

                          Traveling wave antenna                                                       

                      **********************************************************





                                 - - - STRUCTURE SPECIFICATION - - -

                                     COORDINATES MUST BE INPUT IN
                                     METERS OR BE SCALED TO METERS
                                     BEFORE STRUCTURE INPUT IS ENDED


  WIRE                                                                               NO. OF    FIRST  LAST     TAG
  NO.        X1         Y1         Z1          X2         Y2         Z2      RADIUS   SEG.     SEG.   SEG.     NO.
     1    0.00000    0.00000    0.00000     0.00000    0.00000  600.00000    0.00500     84        1    84       2

   TOTAL SEGMENTS USED=   84     NO. SEG. IN A SYMMETRIC CELL=   84     SYMMETRY FLAG=  0


         - MULTIPLE WIRE JUNCTIONS -
 JUNCTION    SEGMENTS  (- FOR END 1, + FOR END 2)
  NONE




                                 - - - - SEGMENTATION DATA - - - -

                                        COORDINATES IN METERS

                         I+ AND I- INDICATE THE SEGMENTS BEFORE AND AFTER I


  SEG.   COORDINATES OF SEG. CENTER     SEG.     ORIENTATION ANGLES    WIRE    CONNECTION DATA   TAG
  NO.       X         Y         Z       LENGTH     ALPHA     BETA      RADIUS    I-   I    I+    NO.
     1   0.00000   0.00000   3.57143   7.14286   90.00000   0.00000   0.00500     0    1    2      2
     2   0.00000   0.00000  10.71429   7.14286   90.00000   0.00000   0.00500     1    2    3      2
     3   0.00000   0.00000  17.85714   7.14286   90.00000   0.00000   0.00500     2    3    4      2
     4   0.00000   0.00000  25.00000   7.14286   90.00000   0.00000   0.00500     3    4    5      2
     5   0.00000   0.00000  32.14286   7.14286   90.00000   0.00000   0.00500     4    5    6      2
     6   0.00000   0.00000  39.28571   7.14286   90.00000   0.00000   0.00500     5    6    7      2
     7   0.00000   0.00000  46.42857   7.14286   90.00000   0.00000   0.00500     6    7    8      2
     8   0.00000   0.00000  53.57143   7.14286   90.00000   0.00000   0.00500     7    8    9      2
     9   0.00000   0.00000  60.71429   7.14286   90.00000   0.00000   0.00500     8    9   10      2
    10   0.00000   0.00000  67.85714   7.14286   90.00000   0.00000   0.00500     9   10   11      2
    11   0.00000   0.00000  75.00000   7.14286   90.00000   0.00000   0.00500    10   11   12      2
    12   0.00000   0.00000  82.14286   7.14286   90.00000   0.00000   0.00500    11   12   13      2
    13   0.00000   0.00000  89.28571   7.14286   90.00000   0.00000   0.00500    12   13   14      2
    14   0.00000   0.00000  96.42857   7.14286   90.00000   0.00000   0.00500    13   14   15      2
    15   0.00000   0.00000 103.57143   7.14286   90.00000   0.00000   0.00500    14   15   16      2
    16   0.00000   0.00000 110.71429   7.14286   90.00000   0.00000   0.00500    15   16   17      2
    17   0.00000   0.00000 117.85714   7.14286   90.00000   0.00000   0.00500    16   17   18      2
    18   0.00000   0.00000 125.00000   7.14286   90.00000   0.00000   0.00500    17   18   19      2
    19   0.00000   0.00000 132.14286   7.14286   90.00000   0.00000   0.00500    18   19   20      2
    20   0.00000   0.00000 139.28571   7.14286   90.00000   0.00000   0.00500    19   20   21      2
    21   0.00000   0.00000 146.42857   7.14286   90.00000   0.00000   0.00500    20   21   22      2
    22   0.00000   0.00000 153.57143   7.14286   90.00000   0.00000   0.00500    21   22   23      2
    23   0.00000   0.00000 160.71429   7.14286   90.00000   0.00000   0.00500    22   23   24      2
    24   0.00000   0.00000 167.85714   7.14286   90.00000   0.00000   0.00500    23   24   25      2
    25   0.00000   0.00000 175.00000   7.14286   90.00000   0.00000   0.00500    24   25   26      2
    26   0.00000   0.00000 182.14286   7.14286   90.00000   0.00000   0.00500    25   26   27      2
    27   0.00000   0.00000 189.28571   7.14286   90.00000   0.00000   0.00500    26   27   28      2
    28   0.00000   0.00000 196.42857   7.14286   90.00000   0.00000   0.00500    27   28   29      2
    29   0.00000   0.00000 203.57143   7.14286   90.00000   0.00000   0.00500    28   29   30      2
    30   0.00000   0.00000 210.71429   7.14286   90.00000   0.00000   0.00500    29   30   31      2
    31   0.00000   0.00000 217.85714   7.14286   90.00000   0.00000   0.00500    30   31   32      2
    32   0.00000   0.00000 225.00000   7.14286   90.00000   0.00000   0.00500    31   32   33      2
    33   0.00000   0.00000 232.14286   7.14286   90.00000   0.00000   0.00500    32   33   34      2
    34   0.00000   0.00000 239.28571   7.14286   90.00000   0.00000   0.00500    33   34   35      2
    35   0.00000   0.00000 246.42857   7.14286   90.00000   0.00000   0.00500    34   35   36      2
    36   0.00000   0.00000 253.57143   7.14286   90.00000   0.00000   0.00500    35   36   37      2
    37   0.00000   0.00000 260.71429   7.14286   90.00000   0.00000   0.00500    36   37   38      2
    38   0.00000   0.00000 267.85714   7.14286   90.00000   0.00000   0.00500    37   38   39      2
    39   0.00000   0.00000 275.00000   7.14286   90.00000   0.00000   0.00500    38   39   40      2
    40   0.00000   0.00000 282.14286   7.14286   90.00000   0.00000   0.00500    39   40   41      2
    41   0.00000   0.00000 289.28571   7.14286   90.00000   0.00000   0.00500    40   41   42      2
    42   0.00000   0.00000 296.42857   7.14286   90.00000   0.00000   0.00500    41   42   43      2
    43   0.00000   0.00000 303.57143   7.14286   90.00000   0.00000   0.00500    42   43   44      2
    44   0.00000   0.00000 310.71429   7.14286   90.00000   0.00000   0.00500    43   44   45      2
    45   0.00000   0.00000 317.85714   7.14286   90.00000   0.00000   0.00500    44   45   46      2
    46   0.00000   0.00000 325.00000   7.14286   90.00000   0.00000   0.00500    45   46   47      2
    47   0.00000   0.00000 332.14286   7.14286   90.00000   0.00000   0.00500    46   47   48      2
    48   0.00000   0.00000 339.28571   7.14286   90.00000   0.00000   0.00500    47   48   49      2
    49   0.00000   0.00000 346.42857   7.14286   90.00000   0.00000   0.00500    48   49   50      2
    50   0.00000   0.00000 353.57143   7.14286   90.00000   0.00000   0.00500    49   50   51      2
    51   0.00000   0.00000 360.71429   7.14286   90.00000   0.00000   0.00500    50   51   52      2
    52   0.00000   0.00000 367.85714   7.14286   90.00000   0.00000   0.00500    51   52   53      2
    53   0.00000   0.00000 375.00000   7.14286   90.00000   0.00000   0.00500    52   53   54      2
    54   0.00000   0.00000 382.14286   7.14286   90.00000   0.00000   0.00500    53   54   55      2
    55   0.00000   0.00000 389.28571   7.14286   90.00000   0.00000   0.00500    54   55   56      2
    56   0.00000   0.00000 396.42857   7.14286   90.00000   0.00000   0.00500    55   56   57      2
    57   0.00000   0.00000 403.57143   7.14286   90.00000   0.00000   0.00500    56   57   58      2
    58   0.00000   0.00000 410.71429   7.14286   90.00000   0.00000   0.00500    57   58   59      2
    59   0.00000   0.00000 417.85714   7.14286   90.00000   0.00000   0.00500    58   59   60      2
    60   0.00000   0.00000 425.00000   7.14286   90.00000   0.00000   0.00500    59   60   61      2
    61   0.00000   0.00000 432.14286   7.14286   90.00000   0.00000   0.00500    60   61   62      2
    62   0.00000   0.00000 439.28571   7.14286   90.00000   0.00000   0.00500    61   62   63      2
    63   0.00000   0.00000 446.42857   7.14286   90.00000   0.00000   0.00500    62   63   64      2
    64   0.00000   0.00000 453.57143   7.14286   90.00000   0.00000   0.00500    63   64   65      2
    65   0.00000   0.00000 460.71429   7.14286   90.00000   0.00000   0.00500    64   65   66      2
    66   0.00000   0.00000 467.85714   7.14286   90.00000   0.00000   0.00500    65   66   67      2
    67   0.00000   0.00000 475.00000   7.14286   90.00000   0.00000   0.00500    66   67   68      2
    68   0.00000   0.00000 482.14286   7.14286   90.00000   0.00000   0.00500    67   68   69      2
    69   0.00000   0.00000 489.28571   7.14286   90.00000   0.00000   0.00500    68   69   70      2
    70   0.00000   0.00000 496.42857   7.14286   90.00000   0.00000   0.00500    69   70   71      2
    71   0.00000   0.00000 503.57143   7.14286   90.00000   0.00000   0.00500    70   71   72      2
    72   0.00000   0.00000 510.71429   7.14286   90.00000   0.00000   0.00500    71   72   73      2
    73   0.00000   0.00000 517.85714   7.14286   90.00000   0.00000   0.00500    72   73   74      2
    74   0.00000   0.00000 525.00000   7.14286   90.00000   0.00000   0.00500    73   74   75      2
    75   0.00000   0.00000 532.14286   7.14286   90.00000   0.00000   0.00500    74   75   76      2
    76   0.00000   0.00000 539.28571   7.14286   90.00000   0.00000   0.00500    75   76   77      2
    77   0.00000   0.00000 546.42857   7.14286   90.00000   0.00000   0.00500    76   77   78      2
    78   0.00000   0.00000 553.57143   7.14286   90.00000   0.00000   0.00500    77   78   79      2
    79   0.00000   0.00000 560.71429   7.14286   90.00000   0.00000   0.00500    78   79   80      2
    80   0.00000   0.00000 567.85714   7.14286   90.00000   0.00000   0.00500    79   80   81      2
    81   0.00000   0.00000 575.00000   7.14286   90.00000   0.00000   0.00500    80   81   82      2
    82   0.00000   0.00000 582.14286   7.14286   90.00000   0.00000   0.00500    81   82   83      2
    83   0.00000   0.00000 589.28571   7.14286   90.00000   0.00000   0.00500    82   83   84      2
    84   0.00000   0.00000 596.42857   7.14286   90.00000   0.00000   0.00500    83   84    0      2




 ***** INPUT LINE  1  EX   0    2    4    0  1.00000E+00  0.00000E+00  0.00000E+00  0.00000E+00  0.00000E+00  0.00000E+00
 ***** INPUT LINE  2  LD   0    2   81   81  4.00000E+02  0.00000E+00  0.00000E+00  0.00000E+00  0.00000E+00  0.00000E+00
 ***** INPUT LINE  3  FR   0    1    0    0  3.00000E+00  0.00000E+00  0.00000E+00  0.00000E+00  0.00000E+00  0.00000E+00
 ***** INPUT LINE  4  RP   0  181   55 1000  0.00000E+00  0.00000E+00  1.00000E+00  5.00000E+00  0.00000E+00  0.00000E+00




                                 - - - - - - FREQUENCY - - - - - -

                                    FREQUENCY= 3.0000E+00 MHZ
                                    WAVELENGTH= 9.9933E+01 METERS



                                  - - - ANTENNA ENVIRONMENT - - -

                                            FREE SPACE



                               - - - STRUCTURE IMPEDANCE LOADING - - -


       LOCATION          RESISTANCE   INDUCTANCE  CAPACITANCE       IMPEDANCE (OHMS)     CONDUCTIVITY    TYPE
    ITAG FROM THRU          OHMS        HENRYS       FARADS        REAL      IMAGINARY    MHOS/METER

       2   81   81      4.0000E+02                                                                     SERIES 



                                - - - MATRIX TIMING - - -

                        FILL=    0.160 SEC.,  FACTOR=    0.060 SEC.



                                          - - - ANTENNA INPUT PARAMETERS - - -

   TAG   SEG.    VOLTAGE (VOLTS)         CURRENT (AMPS)         IMPEDANCE (OHMS)        ADMITTANCE (MHOS)      POWER
   NO.   NO.    REAL        IMAG.       REAL        IMAG.       REAL        IMAG.       REAL        IMAG.     (WATTS)
     2     4 1.00000E+00 0.00000E+00 2.18578E-03-2.02701E-04 4.53601E+02 4.20653E+01 2.18578E-03-2.02701E-04 1.09289E-03



                             - - - CURRENTS AND LOCATION - - -

                     LENGTHS NORMALIZED BY WAVELENGTH (OR 2.*PI/CABS(K))

  SEG.  TAG    COORD. OF SEG. CENTER     SEG.            - - - CURRENT (AMPS) - - -
  NO.   NO.     X        Y        Z      LENGTH     REAL        IMAG.       MAG.        PHASE
     1    2   0.0000   0.0000   0.0357  0.07148   5.3134E-04 -7.4264E-05  5.3650E-04   -7.957
     2    2   0.0000   0.0000   0.1072  0.07148   1.4097E-03 -1.6907E-04  1.4198E-03   -6.839
     3    2   0.0000   0.0000   0.1787  0.07148   1.9887E-03 -1.7672E-04  1.9965E-03   -5.078
     4    2   0.0000   0.0000   0.2502  0.07148   2.1858E-03 -2.0270E-04  2.1952E-03   -5.298
     5    2   0.0000   0.0000   0.3216  0.07148   1.9722E-03 -9.1920E-04  2.1759E-03  -24.990
     6    2   0.0000   0.0000   0.3931  0.07148   1.3942E-03 -1.5172E-03  2.0605E-03  -47.420
     7    2   0.0000   0.0000   0.4646  0.07148   5.6625E-04 -1.7837E-03  1.8714E-03  -72.387
     8    2   0.0000   0.0000   0.5361  0.07148  -3.5041E-04 -1.6876E-03  1.7236E-03 -101.730
     9    2   0.0000   0.0000   0.6075  0.07148  -1.1790E-03 -1.2591E-03  1.7249E-03 -133.119
    10    2   0.0000   0.0000   0.6790  0.07148  -1.7613E-03 -5.8898E-04  1.8571E-03 -161.510
    11    2   0.0000   0.0000   0.7505  0.07148  -1.9879E-03  1.8708E-04  1.9967E-03  174.624
    12    2   0.0000   0.0000   0.8220  0.07148  -1.8195E-03  9.1519E-04  2.0367E-03  153.297
    13    2   0.0000   0.0000   0.8935  0.07148  -1.2936E-03  1.4529E-03  1.9453E-03  131.682
    14    2   0.0000   0.0000   0.9649  0.07148  -5.1748E-04  1.6966E-03  1.7737E-03  106.963
    15    2   0.0000   0.0000   1.0364  0.07148   3.5409E-04  1.6015E-03  1.6402E-03   77.533
    16    2   0.0000   0.0000   1.1079  0.07148   1.1487E-03  1.1898E-03  1.6538E-03   46.008
    17    2   0.0000   0.0000   1.1794  0.07148   1.7104E-03  5.4578E-04  1.7953E-03   17.698
    18    2   0.0000   0.0000   1.2508  0.07148   1.9301E-03 -2.0137E-04  1.9406E-03   -5.956
    19    2   0.0000   0.0000   1.3223  0.07148   1.7668E-03 -9.0310E-04  1.9842E-03  -27.074
    20    2   0.0000   0.0000   1.3938  0.07148   1.2551E-03 -1.4209E-03  1.8959E-03  -48.547
    21    2   0.0000   0.0000   1.4653  0.07148   4.9796E-04 -1.6537E-03  1.7271E-03  -73.242
    22    2   0.0000   0.0000   1.5367  0.07148  -3.5368E-04 -1.5572E-03  1.5968E-03 -102.797
    23    2   0.0000   0.0000   1.6082  0.07148  -1.1311E-03 -1.1525E-03  1.6148E-03 -134.465
    24    2   0.0000   0.0000   1.6797  0.07148  -1.6811E-03 -5.2146E-04  1.7602E-03 -162.767
    25    2   0.0000   0.0000   1.7512  0.07148  -1.8960E-03  2.0962E-04  1.9076E-03  173.691
    26    2   0.0000   0.0000   1.8226  0.07148  -1.7348E-03  8.9547E-04  1.9523E-03  152.699
    27    2   0.0000   0.0000   1.8941  0.07148  -1.2310E-03  1.4005E-03  1.8646E-03  131.314
    28    2   0.0000   0.0000   1.9656  0.07148  -4.8540E-04  1.6255E-03  1.6964E-03  106.627
    29    2   0.0000   0.0000   2.0371  0.07148   3.5348E-04  1.5271E-03  1.5675E-03   76.968
    30    2   0.0000   0.0000   2.1085  0.07148   1.1194E-03  1.1264E-03  1.5880E-03   45.178
    31    2   0.0000   0.0000   2.1800  0.07148   1.6611E-03  5.0390E-04  1.7359E-03   16.875
    32    2   0.0000   0.0000   2.2515  0.07148   1.8723E-03 -2.1606E-04  1.8847E-03   -6.583
    33    2   0.0000   0.0000   2.3230  0.07148   1.7121E-03 -8.9043E-04  1.9298E-03  -27.479
    34    2   0.0000   0.0000   2.3945  0.07148   1.2134E-03 -1.3857E-03  1.8419E-03  -48.793
    35    2   0.0000   0.0000   2.4659  0.07148   4.7597E-04 -1.6045E-03  1.6736E-03  -73.477
    36    2   0.0000   0.0000   2.5374  0.07148  -3.5362E-04 -1.5042E-03  1.5452E-03 -103.229
    37    2   0.0000   0.0000   2.6089  0.07148  -1.1109E-03 -1.1060E-03  1.5676E-03 -135.127
    38    2   0.0000   0.0000   2.6804  0.07148  -1.6462E-03 -4.8971E-04  1.7175E-03 -163.434
    39    2   0.0000   0.0000   2.7518  0.07148  -1.8542E-03  2.2176E-04  1.8674E-03  173.180
    40    2   0.0000   0.0000   2.8233  0.07148  -1.6945E-03  8.8706E-04  1.9126E-03  152.368
    41    2   0.0000   0.0000   2.8948  0.07148  -1.1996E-03  1.3744E-03  1.8243E-03  131.115
    42    2   0.0000   0.0000   2.9663  0.07148  -4.6836E-04  1.5878E-03  1.6554E-03  106.435
    43    2   0.0000   0.0000   3.0377  0.07148   3.5400E-04  1.4856E-03  1.5272E-03   76.597
    44    2   0.0000   0.0000   3.1092  0.07148   1.1044E-03  1.0890E-03  1.5510E-03   44.597
    45    2   0.0000   0.0000   3.1807  0.07148   1.6345E-03  4.7747E-04  1.7028E-03   16.284
    46    2   0.0000   0.0000   3.2522  0.07148   1.8398E-03 -2.2715E-04  1.8538E-03   -7.038
    47    2   0.0000   0.0000   3.3236  0.07148   1.6803E-03 -8.8490E-04  1.8991E-03  -27.772
    48    2   0.0000   0.0000   3.3951  0.07148   1.1884E-03 -1.3655E-03  1.8102E-03  -48.967
    49    2   0.0000   0.0000   3.4666  0.07148   4.6201E-04 -1.5740E-03  1.6404E-03  -73.641
    50    2   0.0000   0.0000   3.5381  0.07148  -3.5446E-04 -1.4697E-03  1.5119E-03 -103.560
    51    2   0.0000   0.0000   3.6095  0.07148  -1.0992E-03 -1.0742E-03  1.5369E-03 -135.661
    52    2   0.0000   0.0000   3.6810  0.07148  -1.6250E-03 -4.6641E-04  1.6906E-03 -163.985
    53    2   0.0000   0.0000   3.7525  0.07148  -1.8279E-03  2.3249E-04  1.8427E-03  172.752
    54    2   0.0000   0.0000   3.8240  0.07148  -1.6685E-03  8.8373E-04  1.8881E-03  152.093
    55    2   0.0000   0.0000   3.8955  0.07148  -1.1790E-03  1.3582E-03  1.7985E-03  130.959
    56    2   0.0000   0.0000   3.9669  0.07148  -4.5670E-04  1.5622E-03  1.6276E-03  106.296
    57    2   0.0000   0.0000   4.0384  0.07148   3.5484E-04  1.4558E-03  1.4984E-03   76.302
    58    2   0.0000   0.0000   4.1099  0.07148   1.0948E-03  1.0608E-03  1.5244E-03   44.095
    59    2   0.0000   0.0000   4.1814  0.07148   1.6168E-03  4.5602E-04  1.6799E-03   15.751
    60    2   0.0000   0.0000   4.2528  0.07148   1.8178E-03 -2.3804E-04  1.8333E-03   -7.460
    61    2   0.0000   0.0000   4.3243  0.07148   1.6585E-03 -8.8356E-04  1.8792E-03  -28.046
    62    2   0.0000   0.0000   4.3958  0.07148   1.1711E-03 -1.3525E-03  1.7891E-03  -49.113
    63    2   0.0000   0.0000   4.4673  0.07148   4.5240E-04 -1.5522E-03  1.6168E-03  -73.751
    64    2   0.0000   0.0000   4.5387  0.07148  -3.5478E-04 -1.4435E-03  1.4865E-03 -103.808
    65    2   0.0000   0.0000   4.6102  0.07148  -1.0905E-03 -1.0484E-03  1.5128E-03 -136.128
    66    2   0.0000   0.0000   4.6817  0.07148  -1.6093E-03 -4.4588E-04  1.6699E-03 -164.514
    67    2   0.0000   0.0000   4.7532  0.07148  -1.8087E-03  2.4424E-04  1.8251E-03  172.309
    68    2   0.0000   0.0000   4.8246  0.07148  -1.6497E-03  8.8486E-04  1.8720E-03  151.792
    69    2   0.0000   0.0000   4.8961  0.07148  -1.1644E-03  1.3489E-03  1.7820E-03  130.802
    70    2   0.0000   0.0000   4.9676  0.07148  -4.4945E-04  1.5445E-03  1.6086E-03  106.225
    71    2   0.0000   0.0000   5.0391  0.07148   3.5331E-04  1.4331E-03  1.4760E-03   76.151
    72    2   0.0000   0.0000   5.1105  0.07148   1.0848E-03  1.0372E-03  1.5008E-03   43.715
    73    2   0.0000   0.0000   5.1820  0.07148   1.6002E-03  4.3542E-04  1.6584E-03   15.221
    74    2   0.0000   0.0000   5.2535  0.07148   1.7981E-03 -2.5265E-04  1.8158E-03   -7.998
    75    2   0.0000   0.0000   5.3250  0.07148   1.6401E-03 -8.9059E-04  1.8663E-03  -28.502
    76    2   0.0000   0.0000   5.3965  0.07148   1.1586E-03 -1.3519E-03  1.7805E-03  -49.403
    77    2   0.0000   0.0000   5.4679  0.07148   4.5039E-04 -1.5452E-03  1.6095E-03  -73.750
