1



                                 *********************************************

                                    NUMERICAL ELECTROMAGNETICS CODE (NEC-2D)

                                 *********************************************




                                     - - - - COMMENTS - - - -


                          EXAMPLE                                                                    
                          UDA-YAGI ANTENNA                                                           
                          FIle Generated by MatLab                                                   




                                 - - - STRUCTURE SPECIFICATION - - -

                                     COORDINATES MUST BE INPUT IN
                                     METERS OR BE SCALED TO METERS
                                     BEFORE STRUCTURE INPUT IS ENDED


  WIRE                                                                               NO. OF    FIRST  LAST     TAG
  NO.        X1         Y1         Z1          X2         Y2         Z2      RADIUS   SEG.     SEG.   SEG.     NO.
     1   -0.16830    0.00000   -0.24170    -0.16830    0.00000    0.24170    0.00430      7        1     7       1
     2    0.00000    0.00000   -0.27440     0.00000    0.00000    0.27440    0.00430      7        8    14       2
     3    0.23890    0.00000   -0.22130     0.23890    0.00000    0.22130    0.00430      7       15    21       3

   TOTAL SEGMENTS USED=   21     NO. SEG. IN A SYMMETRIC CELL=   21     SYMMETRY FLAG=  0


         - MULTIPLE WIRE JUNCTIONS -
 JUNCTION    SEGMENTS  (- FOR END 1, + FOR END 2)
  NONE




                                 - - - - SEGMENTATION DATA - - - -

                                        COORDINATES IN METERS

                         I+ AND I- INDICATE THE SEGMENTS BEFORE AND AFTER I


  SEG.   COORDINATES OF SEG. CENTER     SEG.     ORIENTATION ANGLES    WIRE    CONNECTION DATA   TAG
  NO.       X         Y         Z       LENGTH     ALPHA     BETA      RADIUS    I-   I    I+    NO.
     1  -0.16830   0.00000  -0.20717   0.06906   90.00000   0.00000   0.00430     0    1    2      1
     2  -0.16830   0.00000  -0.13811   0.06906   90.00000   0.00000   0.00430     1    2    3      1
     3  -0.16830   0.00000  -0.06906   0.06906   90.00000   0.00000   0.00430     2    3    4      1
     4  -0.16830   0.00000   0.00000   0.06906   90.00000   0.00000   0.00430     3    4    5      1
     5  -0.16830   0.00000   0.06906   0.06906   90.00000   0.00000   0.00430     4    5    6      1
     6  -0.16830   0.00000   0.13811   0.06906   90.00000   0.00000   0.00430     5    6    7      1
     7  -0.16830   0.00000   0.20717   0.06906   90.00000   0.00000   0.00430     6    7    0      1
     8   0.00000   0.00000  -0.23520   0.07840   90.00000   0.00000   0.00430     0    8    9      2
     9   0.00000   0.00000  -0.15680   0.07840   90.00000   0.00000   0.00430     8    9   10      2
    10   0.00000   0.00000  -0.07840   0.07840   90.00000   0.00000   0.00430     9   10   11      2
    11   0.00000   0.00000   0.00000   0.07840   90.00000   0.00000   0.00430    10   11   12      2
    12   0.00000   0.00000   0.07840   0.07840   90.00000   0.00000   0.00430    11   12   13      2
    13   0.00000   0.00000   0.15680   0.07840   90.00000   0.00000   0.00430    12   13   14      2
    14   0.00000   0.00000   0.23520   0.07840   90.00000   0.00000   0.00430    13   14    0      2
    15   0.23890   0.00000  -0.18969   0.06323   90.00000   0.00000   0.00430     0   15   16      3
    16   0.23890   0.00000  -0.12646   0.06323   90.00000   0.00000   0.00430    15   16   17      3
    17   0.23890   0.00000  -0.06323   0.06323   90.00000   0.00000   0.00430    16   17   18      3
    18   0.23890   0.00000   0.00000   0.06323   90.00000   0.00000   0.00430    17   18   19      3
    19   0.23890   0.00000   0.06323   0.06323   90.00000   0.00000   0.00430    18   19   20      3
    20   0.23890   0.00000   0.12646   0.06323   90.00000   0.00000   0.00430    19   20   21      3
    21   0.23890   0.00000   0.18969   0.06323   90.00000   0.00000   0.00430    20   21    0      3






 ***** DATA CARD NO.  1   EX   0     2     4     0  1.00000E+00  0.00000E+00  0.00000E+00  0.00000E+00  0.00000E+00  0.00000E+00
 ***** DATA CARD NO.  2   FR   0     1     0     0  2.99800E+02  0.00000E+00  0.00000E+00  0.00000E+00  0.00000E+00  0.00000E+00
 ***** DATA CARD NO.  3   RP   0     1     1  1000  9.00000E+01  0.00000E+00  0.00000E+00  0.00000E+00  0.00000E+00  0.00000E+00




                                 - - - - - - FREQUENCY - - - - - -

                                    FREQUENCY= 2.9980E+02 MHZ
                                    WAVELENGTH= 1.0000E+00 METERS




                    APPROXIMATE INTEGRATION EMPLOYED FOR SEGMENTS MORE THAN   1.000 WAVELENGTHS APART



                               - - - STRUCTURE IMPEDANCE LOADING - - -

                                   THIS STRUCTURE IS NOT LOADED



                                  - - - ANTENNA ENVIRONMENT - - -

                                            FREE SPACE



                                - - - MATRIX TIMING - - -

                        FILL=    0.000 SEC.,  FACTOR=    0.000 SEC.



                                          - - - ANTENNA INPUT PARAMETERS - - -

   TAG   SEG.    VOLTAGE (VOLTS)         CURRENT (AMPS)         IMPEDANCE (OHMS)        ADMITTANCE (MHOS)      POWER
   NO.   NO.    REAL        IMAG.       REAL        IMAG.       REAL        IMAG.       REAL        IMAG.     (WATTS)
     2    11 1.00000E+00 0.00000E+00 7.06580E-04-6.05910E-03 1.89880E+01 1.62827E+02 7.06580E-04-6.05910E-03 3.53290E-04



                             - - - CURRENTS AND LOCATION - - -

                                 DISTANCES IN WAVELENGTHS


  SEG.  TAG    COORD. OF SEG. CENTER     SEG.            - - - CURRENT (AMPS) - - -
  NO.   NO.     X        Y        Z      LENGTH     REAL        IMAG.       MAG.        PHASE
     1    1  -0.1683   0.0000  -0.2072  0.06906   1.3083E-04  1.4082E-03  1.4143E-03   84.692
     2    1  -0.1683   0.0000  -0.1381  0.06906   3.0571E-04  3.3162E-03  3.3303E-03   84.733
     3    1  -0.1683   0.0000  -0.0691  0.06906   4.1538E-04  4.5201E-03  4.5392E-03   84.750
     4    1  -0.1683   0.0000   0.0000  0.06906   4.5368E-04  4.9402E-03  4.9610E-03   84.753
     5    1  -0.1683   0.0000   0.0691  0.06906   4.1538E-04  4.5201E-03  4.5392E-03   84.750
     6    1  -0.1683   0.0000   0.1381  0.06906   3.0571E-04  3.3162E-03  3.3303E-03   84.733
     7    1  -0.1683   0.0000   0.2072  0.06906   1.3083E-04  1.4082E-03  1.4143E-03   84.692
     8    2   0.0000   0.0000  -0.2352  0.07840   1.8429E-04 -2.2388E-03  2.2464E-03  -85.294
     9    2   0.0000   0.0000  -0.1568  0.07840   4.5648E-04 -5.0909E-03  5.1114E-03  -84.876
    10    2   0.0000   0.0000  -0.0784  0.07840   6.4030E-04 -6.3545E-03  6.3867E-03  -84.246
    11    2   0.0000   0.0000   0.0000  0.07840   7.0658E-04 -6.0591E-03  6.1002E-03  -83.349
    12    2   0.0000   0.0000   0.0784  0.07840   6.4030E-04 -6.3545E-03  6.3867E-03  -84.246
    13    2   0.0000   0.0000   0.1568  0.07840   4.5648E-04 -5.0909E-03  5.1114E-03  -84.876
    14    2   0.0000   0.0000   0.2352  0.07840   1.8429E-04 -2.2388E-03  2.2464E-03  -85.294
    15    3   0.2389   0.0000  -0.1897  0.06323  -5.3297E-04  1.3655E-03  1.4658E-03  111.322
    16    3   0.2389   0.0000  -0.1265  0.06323  -1.2190E-03  3.1272E-03  3.3564E-03  111.296
    17    3   0.2389   0.0000  -0.0632  0.06323  -1.6394E-03  4.2082E-03  4.5162E-03  111.285
    18    3   0.2389   0.0000   0.0000  0.06323  -1.7850E-03  4.5823E-03  4.9177E-03  111.283
    19    3   0.2389   0.0000   0.0632  0.06323  -1.6394E-03  4.2082E-03  4.5162E-03  111.285
    20    3   0.2389   0.0000   0.1265  0.06323  -1.2190E-03  3.1272E-03  3.3564E-03  111.296
    21    3   0.2389   0.0000   0.1897  0.06323  -5.3297E-04  1.3655E-03  1.4658E-03  111.322



                                        - - - POWER BUDGET - - -

                                           INPUT POWER   = 3.5329E-04 WATTS
                                           RADIATED POWER= 3.5329E-04 WATTS
                                           STRUCTURE LOSS= 0.0000E+00 WATTS
                                           NETWORK LOSS  = 0.0000E+00 WATTS
                                           EFFICIENCY    = 100.00 PERCENT



                                                - - - RADIATION PATTERNS - - -

  - - ANGLES - -           - POWER GAINS -       - - - POLARIZATION - - -    - - - E(THETA) - - -    - - - E(PHI) - - -
  THETA     PHI        VERT.   HOR.    TOTAL      AXIAL     TILT   SENSE     MAGNITUDE    PHASE      MAGNITUDE    PHASE 
 DEGREES  DEGREES       DB      DB      DB        RATIO     DEG.              VOLTS/M    DEGREES      VOLTS/M    DEGREES
   90.00     0.00       9.81 -999.99    9.81    0.00000     0.00  LINEAR    4.50498E-01     7.50    0.00000E+00     0.00






 ***** DATA CARD NO.  4   EN   0     0     0     0  0.00000E+00  0.00000E+00  0.00000E+00  0.00000E+00  0.00000E+00  0.00000E+00

 RUN TIME =     0.000
